"b:tnow in s","s:ut in p.u.","s:cur1 in p.u.","s:Q1 in Mvar","s:P1 in MW"
0.000000,1.029756,0.781235,184.999959,699.999940
0.010000,1.036261,0.741633,168.706790,670.782835
0.020000,1.036344,0.741279,169.055125,670.411478
0.030000,1.036361,0.740936,169.375979,670.012332
0.040000,1.036330,0.740603,169.679781,669.593482
0.050000,1.036262,0.740279,169.974778,669.160473
0.060000,1.036168,0.739963,170.267493,668.717143
0.070000,1.036053,0.739655,170.563086,668.266217
0.080000,1.035921,0.739355,170.865647,667.809702
0.090000,1.035776,0.739063,171.178425,667.349171
0.100000,1.035620,0.738780,171.504008,666.885941
0.110000,1.035452,0.738508,171.844463,666.421195
0.120000,1.035276,0.738246,172.201454,665.956056
0.130000,1.035089,0.737997,172.576319,665.491632
0.140000,1.034894,0.737762,172.970148,665.029038
0.150000,1.034689,0.737543,173.383823,664.569407
0.160000,1.034475,0.737340,173.818068,664.113888
0.170000,1.034252,0.737155,174.273473,663.663642
0.180000,1.034018,0.736991,174.750511,663.219827
0.190000,1.033775,0.736848,175.249561,662.783595
0.200000,1.033522,0.736728,175.770923,662.356074
0.210000,1.033258,0.736632,176.314824,661.938362
0.220000,1.032983,0.736562,176.881432,661.531514
0.230000,1.032698,0.736520,177.470859,661.136534
0.240000,1.032401,0.736505,178.083170,660.754365
0.250000,1.032094,0.736520,178.718383,660.385878
0.260000,1.031775,0.736565,179.376477,660.031871
0.270000,1.031445,0.736641,180.057393,659.693060
0.280000,1.031103,0.736750,180.761039,659.370070
0.290000,1.030750,0.736891,181.487289,659.063439
0.300000,1.030386,0.737065,182.235973,658.773599
0.310000,1.030010,0.737272,183.006856,658.500867
0.320000,1.029623,0.737513,183.799650,658.245448
0.330000,1.029225,0.737788,184.614021,658.007443
0.340000,1.028816,0.738097,185.449589,657.786840
0.350000,1.028395,0.738439,186.305932,657.583523
0.360000,1.027964,0.738814,187.182594,657.397268
0.370000,1.027522,0.739222,188.079081,657.227745
0.380000,1.027069,0.739661,188.994872,657.074521
0.390000,1.026606,0.740132,189.929414,656.937059
0.400000,1.026133,0.740633,190.882109,656.814718
0.410000,1.025650,0.741164,191.852312,656.706753
0.420000,1.025157,0.741723,192.839336,656.612330
0.430000,1.024655,0.742308,193.842450,656.530531
0.440000,1.024144,0.742920,194.860884,656.460356
0.450000,1.023624,0.743555,195.893821,656.400740
0.460000,1.023095,0.744212,196.940403,656.350552
0.470000,1.022559,0.744891,197.999743,656.308602
0.480000,1.022014,0.745589,199.070953,656.273620
0.490000,1.021462,0.746303,200.153136,656.244267
0.500000,1.020904,0.747034,201.245363,656.219146
0.510000,1.020338,0.747777,202.346671,656.196826
0.520000,1.019766,0.748532,203.456053,656.175851
0.530000,1.019187,0.749296,204.572446,656.154770
0.540000,1.018604,0.750067,205.694731,656.132164
0.550000,1.018015,0.750843,206.821761,656.106632
0.560000,1.017421,0.751623,207.952399,656.076770
0.570000,1.016823,0.752403,209.085520,656.041178
0.580000,1.016221,0.753181,210.219994,655.998475
0.590000,1.015616,0.753957,211.354693,655.947303
0.600000,1.015008,0.754727,212.488491,655.886338
0.610000,1.014397,0.755489,213.620269,655.814295
0.620000,1.013784,0.756242,214.748914,655.729932
0.630000,1.013170,0.756983,215.873318,655.632061
0.640000,1.012554,0.757711,216.992378,655.519541
0.650000,1.011938,0.758423,218.104991,655.391294
0.660000,1.011322,0.759119,219.210053,655.246298
0.670000,1.010706,0.759795,220.306463,655.083595
0.680000,1.010091,0.760451,221.393137,654.902293
0.690000,1.009476,0.761084,222.469008,654.701595
0.700000,1.008864,0.761694,223.533043,654.480795
0.710000,1.008254,0.762279,224.584248,654.239270
0.720000,1.007646,0.762837,225.621671,653.976481
0.730000,1.007041,0.763367,226.644398,653.691968
0.740000,1.006439,0.763869,227.651536,653.385349
0.750000,1.005842,0.764340,228.642171,653.056319
0.760000,1.005248,0.764781,229.615397,652.704670
0.770000,1.004659,0.765190,230.570344,652.330278
0.780000,1.004075,0.765567,231.506187,651.933133
0.790000,1.003497,0.765910,232.422165,651.513351
0.800000,1.002924,0.766221,233.317584,651.071140
0.810000,1.002357,0.766497,234.191820,650.606812
0.820000,1.001796,0.766740,235.044311,650.120778
0.830000,1.001243,0.766948,235.874541,649.613539
0.840000,1.000696,0.767123,236.681999,649.085664
0.850000,1.000158,0.767263,237.466199,648.537799
0.860000,0.999627,0.767370,238.226691,647.970674
0.870000,0.999104,0.767443,238.963058,647.385098
0.880000,0.998590,0.767484,239.674921,646.781957
0.890000,0.998085,0.767492,240.361934,646.162210
0.900000,0.997589,0.767468,241.023790,645.526886
0.910000,0.997102,0.767412,241.660216,644.877082
0.920000,0.996626,0.767327,242.270976,644.213956
0.930000,0.996159,0.767212,242.855868,643.538726
0.940000,0.995702,0.767068,243.414726,642.852664
0.950000,0.995255,0.766897,243.947417,642.157091
0.960000,0.994820,0.766699,244.453842,641.453373
0.970000,0.994395,0.766476,244.933934,640.742917
0.980000,0.993981,0.766230,245.387658,640.027166
0.990000,0.993578,0.765960,245.815008,639.307594
1.000000,0.993187,0.765669,246.216009,638.585698
1.010000,0.978565,0.823964,283.224775,668.119329
1.020000,0.977692,0.823756,282.781228,667.405699
1.030000,0.976989,0.823574,282.363190,666.842601
1.040000,0.976420,0.823415,281.948840,666.407906
1.050000,0.975959,0.823276,281.521183,666.085895
1.060000,0.975587,0.823157,281.067022,665.865346
1.070000,0.975292,0.823056,280.576138,665.738152
1.080000,0.975063,0.822970,280.040647,665.698341
1.090000,0.974894,0.822899,279.454495,665.741366
1.100000,0.974780,0.822841,278.813056,665.863606
1.110000,0.974719,0.822794,278.112823,666.062012
1.120000,0.974707,0.822756,277.351170,666.333851
1.130000,0.974743,0.822725,276.526154,666.676531
1.140000,0.974828,0.822699,275.636377,667.087483
1.150000,0.974959,0.822675,274.680871,667.564073
1.160000,0.975136,0.822651,273.659009,668.103546
1.170000,0.975361,0.822625,272.570439,668.702994
1.180000,0.975631,0.822594,271.415035,669.359331
1.190000,0.975949,0.822554,270.192857,670.069280
1.200000,0.976312,0.822504,268.904124,670.829369
1.210000,0.976722,0.822438,267.549191,671.635934
1.220000,0.977179,0.822356,266.128533,672.485115
1.230000,0.977681,0.822252,264.642738,673.372870
1.240000,0.978230,0.822124,263.092496,674.294979
1.250000,0.978825,0.821968,261.478597,675.247055
1.260000,0.979466,0.821780,259.801927,676.224554
1.270000,0.980152,0.821557,258.063468,677.222789
1.280000,0.980883,0.821296,256.264297,678.236941
1.290000,0.981659,0.820993,254.405589,679.262074
1.300000,0.982478,0.820643,252.488619,680.293150
1.310000,0.983341,0.820244,250.514760,681.325043
1.320000,0.984246,0.819791,248.485493,682.352559
1.330000,0.985194,0.819282,246.402402,683.370448
1.340000,0.986182,0.818713,244.267184,684.373424
1.350000,0.987210,0.818079,242.081651,685.356184
1.360000,0.988277,0.817379,239.847725,686.313425
1.370000,0.989381,0.816609,237.567450,687.239867
1.380000,0.990522,0.815765,235.242984,688.130275
1.390000,0.991698,0.814845,232.876607,688.979472
1.400000,0.992908,0.813846,230.470735,689.782364
1.410000,0.994150,0.812766,228.027908,690.533951
1.420000,0.995423,0.811602,225.550795,691.229356
1.430000,0.996724,0.810352,223.042167,691.863841
1.440000,0.998053,0.809015,220.504894,692.432828
1.450000,0.999407,0.807588,217.941941,692.931937
1.460000,1.000785,0.806070,215.356364,693.357002
1.470000,1.002184,0.804460,212.751301,693.704101
1.480000,1.003603,0.802758,210.129992,693.969398
1.490000,1.005040,0.800962,207.495727,694.149299
1.500000,1.006491,0.799073,204.851765,694.240903
1.510000,1.007956,0.797091,202.201425,694.241661
1.520000,1.009432,0.795016,199.547979,694.149243
1.530000,1.010916,0.792849,196.894297,693.961470
1.540000,1.012405,0.790593,194.243310,693.676654
1.550000,1.013898,0.788247,191.598457,693.293921
1.560000,1.015393,0.785816,188.963442,692.812954
1.570000,1.016886,0.783302,186.341543,692.233645
1.580000,1.018376,0.780708,183.735974,691.556362
1.590000,1.019861,0.778037,181.150162,690.782050
1.600000,1.021338,0.775293,178.587573,689.912092
1.610000,1.022805,0.772480,176.051378,688.948310
1.620000,1.024261,0.769603,173.544565,687.892920
1.630000,1.025702,0.766668,171.070062,686.748633
1.640000,1.027127,0.763678,168.630790,685.518682
1.650000,1.028534,0.760641,166.229698,684.206801
1.660000,1.029921,0.757562,163.870073,682.816970
1.670000,1.031286,0.754446,161.555123,681.353440
1.680000,1.032628,0.751302,159.287307,679.821126
1.690000,1.033944,0.748134,157.068732,678.225551
1.700000,1.035233,0.744951,154.901540,676.572201
1.710000,1.036494,0.741760,152.787551,674.867165
1.720000,1.037725,0.738567,150.728615,673.117095
1.730000,1.038926,0.735382,148.725988,671.328699
1.740000,1.040093,0.732211,146.780912,669.508838
1.750000,1.041227,0.729062,144.895365,667.665003
1.760000,1.042327,0.725944,143.071238,665.804965
1.770000,1.043392,0.722865,141.309879,663.936503
1.780000,1.044421,0.719833,139.612390,662.067514
1.790000,1.045416,0.716856,137.979758,660.205972
1.800000,1.046374,0.713941,136.412877,658.359870
1.810000,1.047295,0.711097,134.912549,656.537187
1.820000,1.048180,0.708332,133.479605,654.745774
1.830000,1.049029,0.705652,132.114770,652.993380
1.840000,1.049840,0.703066,130.818487,651.287751
1.850000,1.050615,0.700580,129.591428,649.636327
1.860000,1.051353,0.698202,128.434261,648.046267
1.870000,1.052054,0.695937,127.347110,646.524763
1.880000,1.052720,0.693793,126.329889,645.078942
1.890000,1.053349,0.691775,125.382672,643.715603
1.900000,1.053943,0.689890,124.505570,642.441192
1.910000,1.054503,0.688143,123.698690,641.261805
1.920000,1.055027,0.686539,122.962137,640.183165
1.930000,1.055518,0.685082,122.296021,639.210594
1.940000,1.055975,0.683777,121.700458,638.349001
1.950000,1.056399,0.682629,121.175577,637.602856
1.960000,1.056790,0.681639,120.721527,636.976181
1.970000,1.057150,0.680813,120.338477,636.472528
1.980000,1.057478,0.680151,120.026622,636.094973
1.990000,1.057775,0.679656,119.786185,635.846102
2.000000,1.058042,0.679330,119.617417,635.728001
2.010000,1.058278,0.679174,119.520600,635.742254
2.020000,1.058485,0.679189,119.496042,635.889933
2.030000,1.058662,0.679375,119.544079,636.171598
2.040000,1.058810,0.679732,119.665070,636.587296
2.050000,1.058930,0.680260,119.859396,637.136562
2.060000,1.059021,0.680956,120.127451,637.818421
2.070000,1.059084,0.681820,120.469640,638.631395
2.080000,1.059119,0.682850,120.886373,639.573505
2.090000,1.059126,0.684043,121.378054,640.642285
2.100000,1.059106,0.685396,121.945075,641.834788
2.110000,1.059057,0.686907,122.587808,643.147599
2.120000,1.058981,0.688571,123.306593,644.576850
2.130000,1.058877,0.690384,124.101728,646.118235
2.140000,1.058745,0.692342,124.973459,647.767023
2.150000,1.058585,0.694440,125.921972,649.518083
2.160000,1.058397,0.696673,126.947375,651.365900
2.170000,1.058181,0.699036,128.049693,653.304597
2.180000,1.057936,0.701521,129.228854,655.327958
2.190000,1.057663,0.704125,130.484678,657.429454
2.200000,1.057360,0.706839,131.816865,659.602271
2.210000,1.057029,0.709657,133.224984,661.839330
2.220000,1.056668,0.712573,134.708466,664.133326
2.230000,1.056277,0.715579,136.266590,666.476750
2.240000,1.055857,0.718668,137.898475,668.861925
2.250000,1.055407,0.721832,139.603072,671.281037
2.260000,1.054927,0.725064,141.379158,673.726167
2.270000,1.054417,0.728356,143.225324,676.189328
2.280000,1.053876,0.731700,145.139977,678.662496
2.290000,1.053305,0.735089,147.121329,681.137648
2.300000,1.052704,0.738513,149.167400,683.606797
2.310000,1.052073,0.741966,151.276010,686.062027
2.320000,1.051411,0.745440,153.444783,688.495528
2.330000,1.050720,0.748926,155.671148,690.899633
2.340000,1.049999,0.752417,157.952340,693.266850
2.350000,1.049248,0.755905,160.285409,695.589894
2.360000,1.048469,0.759382,162.667220,697.861723
2.370000,1.047660,0.762842,165.094465,700.075569
2.380000,1.046824,0.766276,167.563669,702.224963
2.390000,1.045961,0.769677,170.071202,704.303768
2.400000,1.045071,0.773040,172.613288,706.306204
2.410000,1.044154,0.776357,175.186020,708.226870
2.420000,1.043213,0.779621,177.785372,710.060768
2.430000,1.042248,0.782827,180.407215,711.803320
2.440000,1.041260,0.785969,183.047335,713.450389
2.450000,1.040249,0.789042,185.701442,714.998287
2.460000,1.039218,0.792041,188.365196,716.443791
2.470000,1.038167,0.794960,191.034220,717.784144
2.480000,1.037098,0.797795,193.704128,719.017018
2.490000,1.036012,0.800542,196.370519,720.140625
2.500000,1.034911,0.803198,199.029300,721.153473
2.510000,1.033795,0.805760,201.676681,722.054270
2.520000,1.032666,0.808223,204.308312,722.842500
2.530000,1.031526,0.810585,206.919702,723.518326
2.540000,1.030377,0.812845,209.506747,724.082203
2.550000,1.029219,0.815000,212.065209,724.535163
2.560000,1.028056,0.817050,214.590936,724.878712
2.570000,1.026888,0.818992,217.080002,725.114656
2.580000,1.025717,0.820827,219.528623,725.245251
2.590000,1.024545,0.822555,221.933254,725.273045
2.600000,1.023373,0.824174,224.290542,725.200869
2.610000,1.022203,0.825686,226.597262,725.031812
2.620000,1.021038,0.827091,228.850278,724.769124
2.630000,1.019878,0.828389,231.046443,724.416800
2.640000,1.018725,0.829583,233.182855,723.979001
2.650000,1.017581,0.830673,235.256809,723.459832
2.660000,1.016447,0.831662,237.265263,722.863258
2.670000,1.015324,0.832551,239.205487,722.193736
2.680000,1.014214,0.833342,241.075766,721.456312
2.690000,1.013119,0.834039,242.874698,720.655709
2.700000,1.012039,0.834643,244.600646,719.796647
2.710000,1.010977,0.835157,246.251987,718.884380
2.720000,1.009933,0.835584,247.827276,717.924301
2.730000,1.008910,0.835928,249.325287,716.921667
2.740000,1.007909,0.836192,250.744968,715.881675
2.750000,1.006931,0.836378,252.085392,714.809467
2.760000,1.005978,0.836490,253.345708,713.710157
2.770000,1.005050,0.836532,254.525205,712.588764
2.780000,1.004148,0.836507,255.623338,711.450236
2.790000,1.003274,0.836418,256.639736,710.299449
2.800000,1.002429,0.836269,257.574206,709.141186
2.810000,1.001614,0.836063,258.426730,707.980115
2.820000,1.000829,0.835804,259.197435,706.820749
2.830000,1.000076,0.835494,259.886505,705.667414
2.840000,0.999356,0.835138,260.494135,704.524264
2.850000,0.998669,0.834738,261.020560,703.395244
2.860000,0.998016,0.834298,261.466119,702.284075
2.870000,0.997397,0.833820,261.831264,701.194311
2.880000,0.996814,0.833307,262.116565,700.129445
2.890000,0.996267,0.832762,262.322670,699.092747
2.900000,0.995757,0.832189,262.450130,698.087246
2.910000,0.995284,0.831589,262.499525,697.115735
2.920000,0.994848,0.830965,262.471541,696.180810
2.930000,0.994450,0.830320,262.366985,695.284889
2.940000,0.994090,0.829655,262.186768,694.430194
2.950000,0.993769,0.828974,261.931880,693.618743
2.960000,0.993488,0.828277,261.603350,692.852316
2.970000,0.993246,0.827567,261.202193,692.132434
2.980000,0.993043,0.826845,260.729431,691.460374
2.990000,0.992881,0.826114,260.186108,690.837179
3.000000,0.992759,0.825373,259.573296,690.263657
3.010000,0.992677,0.824624,258.892089,689.740387
3.020000,0.992636,0.823869,258.143610,689.267714
3.030000,0.992635,0.823108,257.329010,688.845758
3.040000,0.992675,0.822341,256.449468,688.474408
3.050000,0.992755,0.821570,255.506194,688.153331
3.060000,0.992876,0.820794,254.500429,687.881975
3.070000,0.993037,0.820014,253.433445,687.659569
3.080000,0.993238,0.819230,252.306551,687.485127
3.090000,0.993478,0.818442,251.121088,687.357458
3.100000,0.993759,0.817649,249.878436,687.275166
3.110000,0.994078,0.816851,248.580013,687.236657
3.120000,0.994436,0.816047,247.227279,687.240146
3.130000,0.994833,0.815238,245.821734,687.283662
3.140000,0.995268,0.814421,244.364924,687.365058
3.150000,0.995740,0.813596,242.858436,687.482016
3.160000,0.996249,0.812762,241.303909,687.632057
3.170000,0.996795,0.811918,239.703027,687.812552
3.180000,0.997376,0.811063,238.057522,688.020725
3.190000,0.997992,0.810195,236.369179,688.253672
3.200000,0.998642,0.809313,234.639832,688.508364
3.210000,0.999325,0.808416,232.871365,688.781667
3.220000,1.000040,0.807501,231.065712,689.070347
3.230000,1.000787,0.806568,229.224860,689.371085
3.240000,1.001564,0.805615,227.350843,689.680491
3.250000,1.002371,0.804639,225.445759,689.995050
3.260000,1.003206,0.803640,223.511725,690.311233
3.270000,1.004068,0.802615,221.550881,690.625438
3.280000,1.004956,0.801563,219.565337,690.934084
3.290000,1.005869,0.800483,217.557204,691.233655
3.300000,1.006805,0.799372,215.528641,691.520622
3.310000,1.007762,0.798229,213.481875,691.791503
3.320000,1.008740,0.797053,211.419236,692.042887
3.330000,1.009737,0.795842,209.343149,692.271529
3.340000,1.010752,0.794595,207.256096,692.474275
3.350000,1.011784,0.793312,205.160464,692.648011
3.360000,1.012829,0.791990,203.058605,692.789728
3.370000,1.013889,0.790629,200.952892,692.896580
3.380000,1.014959,0.789228,198.845752,692.965904
3.390000,1.016040,0.787787,196.739675,692.995235
3.400000,1.017130,0.786306,194.637168,692.982271
3.410000,1.018227,0.784783,192.540669,692.924874
3.420000,1.019329,0.783219,190.452517,692.821144
3.430000,1.020435,0.781614,188.375012,692.669383
3.440000,1.021544,0.779968,186.310424,692.468141
3.450000,1.022653,0.778282,184.261007,692.216236
3.460000,1.023761,0.776557,182.229008,691.912772
3.470000,1.024867,0.774793,180.216689,691.557134
3.480000,1.025968,0.772992,178.226492,691.148876
3.490000,1.027065,0.771155,176.260873,690.687755
3.500000,1.028154,0.769285,174.321995,690.173886
3.510000,1.029235,0.767381,172.411706,689.607819
3.520000,1.030306,0.765448,170.531791,688.990483
3.530000,1.031366,0.763487,168.684034,688.322955
3.540000,1.032413,0.761501,166.870007,687.606563
3.550000,1.033447,0.759493,165.091370,686.842849
3.560000,1.034465,0.757465,163.349609,686.034039
3.570000,1.035467,0.755421,161.645804,685.182387
3.580000,1.036450,0.753365,159.981031,684.290348
3.590000,1.037415,0.751300,158.356805,683.360907
3.600000,1.038360,0.749231,156.774830,682.397422
3.610000,1.039285,0.747162,155.236506,681.403300
3.620000,1.040188,0.745097,153.742980,680.382203
3.630000,1.041069,0.743039,152.295288,679.338016
3.640000,1.041928,0.740995,150.894376,678.274819
3.650000,1.042763,0.738968,149.541136,677.196851
3.660000,1.043573,0.736964,148.236402,676.108497
3.670000,1.044360,0.734987,146.980941,675.014268
3.680000,1.045121,0.733041,145.775504,673.918760
3.690000,1.045856,0.731133,144.620855,672.826601
3.700000,1.046566,0.729266,143.517652,671.742502
3.710000,1.047249,0.727446,142.466404,670.671281
3.720000,1.047906,0.725678,141.467689,669.617724
3.730000,1.048536,0.723966,140.522232,668.586465
3.740000,1.049139,0.722316,139.630563,667.582200
3.750000,1.049714,0.720731,138.792973,666.609716
3.760000,1.050263,0.719217,138.009668,665.673808
3.770000,1.050783,0.717778,137.280940,664.779140
3.780000,1.051277,0.716418,136.607113,663.930238
3.790000,1.051743,0.715142,135.988512,663.131476
3.800000,1.052182,0.713955,135.425461,662.387061
3.810000,1.052594,0.712859,134.918284,661.701009
3.820000,1.052978,0.711859,134.467312,661.077134
3.830000,1.053335,0.710957,134.072877,660.519025
3.840000,1.053666,0.710158,133.735318,660.030031
3.850000,1.053969,0.709465,133.454980,659.613247
3.860000,1.054245,0.708879,133.232214,659.271498
3.870000,1.054495,0.708404,133.067373,659.007322
3.880000,1.054719,0.708041,132.960818,658.822968
3.890000,1.054916,0.707793,132.912909,658.720373
3.900000,1.055086,0.707661,132.924009,658.701161
3.910000,1.055230,0.707647,132.994476,658.766631
3.920000,1.055349,0.707750,133.124662,658.917753
3.930000,1.055441,0.707973,133.314911,659.155161
3.940000,1.055507,0.708315,133.565552,659.479149
3.950000,1.055548,0.708777,133.876894,659.889670
3.960000,1.055563,0.709357,134.249225,660.386335
3.970000,1.055552,0.710056,134.682801,660.968414
3.980000,1.055515,0.710872,135.177842,661.634839
3.990000,1.055453,0.711804,135.734530,662.384205
4.000000,1.055365,0.712851,136.352996,663.214780
4.010000,1.055252,0.714010,137.033315,664.124508
4.020000,1.055113,0.715280,137.775505,665.111018
4.030000,1.054949,0.716657,138.579510,666.171636
4.040000,1.054759,0.718139,139.445204,667.303394
4.050000,1.054544,0.719723,140.372376,668.503043
