"b:tnow in s","s:ut in p.u.","s:cur1 in p.u.","s:Q1 in Mvar","s:P1 in MW"
0.000000,1.009792,0.801665,201.999958,699.999966
0.010000,1.003052,0.858573,215.015739,744.653270
0.020000,1.003017,0.857429,215.198317,743.496811
0.030000,1.003018,0.856369,215.410719,742.439930
0.040000,1.003039,0.855349,215.637998,741.431726
0.050000,1.003070,0.854335,215.870460,740.435958
0.060000,1.003105,0.853305,216.101970,739.427081
0.070000,1.003138,0.852241,216.328791,738.387358
0.080000,1.003167,0.851135,216.548782,737.304778
0.090000,1.003189,0.849978,216.760854,736.171532
0.100000,1.003203,0.848768,216.964605,734.982905
0.110000,1.003207,0.847502,217.160067,733.736464
0.120000,1.003201,0.846180,217.347541,732.431463
0.130000,1.003185,0.844804,217.527492,731.068409
0.140000,1.003158,0.843374,217.700472,729.648734
0.150000,1.003120,0.841894,217.867084,728.174553
0.160000,1.003072,0.840366,218.027946,726.648490
0.170000,1.003013,0.838794,218.183685,725.073533
0.180000,1.002944,0.837181,218.334922,723.452937
0.190000,1.002864,0.835532,218.482270,721.790136
0.200000,1.002774,0.833849,218.626336,720.088686
0.210000,1.002673,0.832138,218.767715,718.352209
0.220000,1.002562,0.830401,218.906999,716.584357
0.230000,1.002440,0.828643,219.044771,714.788772
0.240000,1.002309,0.826868,219.181611,712.969065
0.250000,1.002167,0.825079,219.318097,711.128785
0.260000,1.002015,0.823281,219.454803,709.271405
0.270000,1.001854,0.821477,219.592298,707.400297
0.280000,1.001683,0.819670,219.731153,705.518724
0.290000,1.001502,0.817864,219.871933,703.629821
0.300000,1.001312,0.816062,220.015198,701.736585
0.310000,1.001112,0.814267,220.161511,699.841862
0.320000,1.000903,0.812482,220.311430,697.948341
0.330000,1.000685,0.810710,220.465504,696.058542
0.340000,1.000457,0.808954,220.624277,694.174816
0.350000,1.000221,0.807215,220.788282,692.299331
0.360000,0.999976,0.805496,220.958042,690.434078
0.370000,0.999723,0.803798,221.134066,688.580861
0.380000,0.999460,0.802125,221.316846,686.741299
0.390000,0.999190,0.800476,221.506859,684.916821
0.400000,0.998911,0.798854,221.704561,683.108676
0.410000,0.998624,0.797259,221.910385,681.317923
0.420000,0.998329,0.795694,222.124744,679.545443
0.430000,0.998026,0.794157,222.348020,677.791938
0.440000,0.997716,0.792650,222.580567,676.057938
0.450000,0.997398,0.791174,222.822707,674.343806
0.460000,0.997073,0.789728,223.074728,672.649745
0.470000,0.996740,0.788313,223.336884,670.975807
0.480000,0.996401,0.786928,223.609399,669.321891
0.490000,0.996055,0.785573,223.892463,667.687761
0.500000,0.995702,0.784248,224.186230,666.073048
0.510000,0.995342,0.782952,224.490818,664.477260
0.520000,0.994976,0.781684,224.806406,662.899751
0.530000,0.994604,0.780444,225.133058,661.339777
0.540000,0.994226,0.779230,225.470659,659.796584
0.550000,0.993842,0.778042,225.819110,658.269334
0.560000,0.993452,0.776878,226.178281,656.757122
0.570000,0.993058,0.775738,226.548004,655.258990
0.580000,0.992658,0.774619,226.928069,653.773932
0.590000,0.992253,0.773521,227.318224,652.300915
0.600000,0.991843,0.772442,227.718175,650.838883
0.610000,0.991428,0.771380,228.127586,649.386771
0.620000,0.991010,0.770336,228.546083,647.943513
0.630000,0.990587,0.769306,228.973251,646.508058
0.640000,0.990161,0.768290,229.408637,645.079374
0.650000,0.989731,0.767286,229.851753,643.656461
0.660000,0.989298,0.766292,230.302078,642.238359
0.670000,0.988862,0.765309,230.759067,640.824153
0.680000,0.988423,0.764333,231.222285,639.412914
0.690000,0.987981,0.763364,231.691081,638.003834
0.700000,0.987538,0.762401,232.164752,636.596219
0.710000,0.987092,0.761442,232.642623,635.189436
0.720000,0.986645,0.760487,233.123959,633.782906
0.730000,0.986197,0.759534,233.607746,632.375980
0.740000,0.985747,0.758583,234.092847,630.968067
0.750000,0.985296,0.757631,234.578290,629.558820
0.760000,0.984844,0.756679,235.063399,628.148183
0.770000,0.984392,0.755726,235.548017,626.736164
0.780000,0.983940,0.754772,236.031625,625.322778
0.790000,0.983489,0.753817,236.513317,623.908263
0.800000,0.983038,0.752859,236.992344,622.492904
0.810000,0.982588,0.751899,237.467959,621.077084
0.820000,0.982140,0.750938,237.939414,619.661284
0.830000,0.981695,0.749973,238.405961,618.246088
0.840000,0.981251,0.749007,238.866859,616.832181
0.850000,0.980810,0.748039,239.321377,615.420346
0.860000,0.980372,0.747069,239.768793,614.011461
0.870000,0.979938,0.746098,240.208399,612.606501
0.880000,0.979508,0.745127,240.639500,611.206529
0.890000,0.979082,0.744155,241.061421,609.812695
0.900000,0.978661,0.743185,241.473501,608.426232
0.910000,0.978244,0.742215,241.875101,607.048451
0.920000,0.977833,0.741248,242.265603,605.680734
0.930000,0.977428,0.740285,242.644411,604.324535
0.940000,0.977029,0.739325,243.010953,602.981366
0.950000,0.976637,0.738371,243.364681,601.652798
0.960000,0.976252,0.737424,243.705075,600.340451
0.970000,0.975874,0.736485,244.031638,599.045991
0.980000,0.975503,0.735554,244.343904,597.771121
0.990000,0.975141,0.734634,244.641433,596.517578
1.000000,0.974787,0.733726,244.923814,595.287122
1.010000,0.977518,0.640896,246.647836,507.028773
1.020000,0.976722,0.641262,245.696497,507.338715
1.030000,0.975977,0.641554,244.773885,507.592067
1.040000,0.975292,0.641833,243.874217,507.856746
1.050000,0.974669,0.642142,242.991028,508.181813
1.060000,0.974112,0.642513,242.117840,508.602487
1.070000,0.973622,0.642969,241.248574,509.143812
1.080000,0.973198,0.643526,240.377774,509.823352
1.090000,0.972840,0.644194,239.500715,510.653167
1.100000,0.972548,0.644981,238.613433,511.641262
1.110000,0.972319,0.645892,237.712708,512.792648
1.120000,0.972152,0.646930,236.796016,514.110125
1.130000,0.972047,0.648096,235.861479,515.594854
1.140000,0.972002,0.649393,234.907796,517.246780
1.150000,0.972014,0.650819,233.934189,519.064941
1.160000,0.972084,0.652375,232.940342,521.047691
1.170000,0.972208,0.654060,231.926353,523.192872
1.180000,0.972386,0.655873,230.892681,525.497931
1.190000,0.972616,0.657813,229.840114,527.960012
1.200000,0.972897,0.659879,228.769728,530.576015
1.210000,0.973226,0.662069,227.682855,533.342643
1.220000,0.973602,0.664383,226.581064,536.256436
1.230000,0.974024,0.666818,225.466127,539.313788
1.240000,0.974489,0.669372,224.340008,542.510962
1.250000,0.974996,0.672045,223.204839,545.844103
1.260000,0.975543,0.674834,222.062905,549.309233
1.270000,0.976128,0.677738,220.916627,552.902260
1.280000,0.976750,0.680754,219.768551,556.618974
1.290000,0.977405,0.683881,218.621332,560.455043
1.300000,0.978093,0.687115,217.477720,564.406011
1.310000,0.978811,0.690455,216.340550,568.467293
1.320000,0.979557,0.693897,215.212724,572.634174
1.330000,0.980329,0.697440,214.097201,576.901800
1.340000,0.981125,0.701079,212.996985,581.265177
1.350000,0.981942,0.704813,211.915107,585.719167
1.360000,0.982779,0.708636,210.854617,590.258489
1.370000,0.983633,0.712547,209.818561,594.877710
1.380000,0.984501,0.716541,208.809975,599.571255
1.390000,0.985383,0.720613,207.831863,604.333397
1.400000,0.986275,0.724761,206.887189,609.158267
1.410000,0.987175,0.728979,205.978860,614.039853
1.420000,0.988080,0.733263,205.109707,618.972004
1.430000,0.988990,0.737609,204.282475,623.948441
1.440000,0.989901,0.742010,203.499800,628.962758
1.450000,0.990811,0.746462,202.764196,634.008437
1.460000,0.991718,0.750960,202.078039,639.078861
1.470000,0.992621,0.755498,201.443469,644.167272
1.480000,0.993515,0.760069,200.860548,649.265646
1.490000,0.994397,0.764667,200.330100,654.366146
1.500000,0.995268,0.769287,199.855709,659.463029
1.510000,0.996125,0.773923,199.438997,664.549952
1.520000,0.996966,0.778571,199.081341,669.620139
1.530000,0.997790,0.783222,198.784073,674.666718
1.540000,0.998595,0.787873,198.548253,679.682773
1.550000,0.999379,0.792515,198.374189,684.661659
1.560000,1.000142,0.797144,198.262052,689.596816
1.570000,1.000882,0.801752,198.211782,694.481791
1.580000,1.001598,0.806335,198.223040,699.310275
1.590000,1.002289,0.810885,198.295308,704.076085
1.600000,1.002953,0.815398,198.428085,708.773059
1.610000,1.003590,0.819867,198.619879,713.395526
1.620000,1.004199,0.824286,198.869134,717.938040
1.630000,1.004780,0.828650,199.174085,722.395396
1.640000,1.005332,0.832954,199.532698,726.762667
1.650000,1.005855,0.837192,199.942680,731.035223
1.660000,1.006349,0.841360,200.401571,735.208692
1.670000,1.006813,0.845453,200.906703,739.278981
1.680000,1.007248,0.849466,201.455407,743.242267
1.690000,1.007654,0.853394,202.044007,747.095128
1.700000,1.008031,0.857232,202.667470,750.833628
1.710000,1.008379,0.860978,203.323670,754.455847
1.720000,1.008699,0.864628,204.009569,757.959547
1.730000,1.008992,0.868179,204.720862,761.343085
1.740000,1.009259,0.871626,205.453614,764.605013
1.750000,1.009501,0.874968,206.203255,767.743922
1.760000,1.009719,0.878201,206.965707,770.759247
1.770000,1.009915,0.881324,207.736990,773.650771
1.780000,1.010089,0.884334,208.512909,776.418449
1.790000,1.010243,0.887229,209.289275,779.062518
1.800000,1.010379,0.890007,210.061933,781.583479
1.810000,1.010498,0.892668,210.826778,783.982075
1.820000,1.010601,0.895209,211.579811,786.259246
1.830000,1.010692,0.897629,212.317122,788.416126
1.840000,1.010769,0.899929,213.034874,790.454065
1.850000,1.010837,0.902105,213.729435,792.374507
1.860000,1.010896,0.904159,214.397318,794.178973
1.870000,1.010947,0.906089,215.034883,795.869031
1.880000,1.010993,0.907895,215.638875,797.446565
1.890000,1.011035,0.909576,216.206483,798.913586
1.900000,1.011075,0.911133,216.735004,800.272002
1.910000,1.011115,0.912565,217.221954,801.523697
1.920000,1.011155,0.913873,217.665092,802.670516
1.930000,1.011197,0.915056,218.062429,803.714242
1.940000,1.011243,0.916114,218.412241,804.656576
1.950000,1.011294,0.917048,218.713072,805.499120
1.960000,1.011351,0.917857,218.963743,806.243350
1.970000,1.011415,0.918543,219.163351,806.890608
1.980000,1.011487,0.919104,219.311279,807.442083
1.990000,1.011569,0.919542,219.407190,807.898797
2.000000,1.011660,0.919856,219.451030,808.261601
2.010000,1.011763,0.920046,219.443026,808.531160
2.020000,1.011876,0.920114,219.383680,808.707950
2.030000,1.012001,0.920058,219.273770,808.792258
2.040000,1.012138,0.919879,219.114340,808.784175
2.050000,1.012286,0.919578,218.906692,808.683603
2.060000,1.012447,0.919154,218.652382,808.490258
2.070000,1.012620,0.918608,218.353208,808.203673
2.080000,1.012805,0.917939,218.011201,807.823210
2.090000,1.013001,0.917149,217.628611,807.348073
2.100000,1.013209,0.916237,217.207898,806.777316
2.110000,1.013426,0.915204,216.751716,806.109860
2.120000,1.013653,0.914049,216.262900,805.344513
2.130000,1.013889,0.912774,215.744451,804.479985
2.140000,1.014133,0.911379,215.199519,803.514909
2.150000,1.014384,0.909864,214.631387,802.447864
2.160000,1.014640,0.908230,214.043455,801.277399
2.170000,1.014900,0.906477,213.439219,800.002053
2.180000,1.015164,0.904607,212.822255,798.620381
2.190000,1.015428,0.902619,212.196200,797.130984
2.200000,1.015693,0.900517,211.564730,795.532526
2.210000,1.015956,0.898299,210.931543,793.823770
2.220000,1.016216,0.895969,210.300340,792.003593
2.230000,1.016471,0.893527,209.674801,790.071020
2.240000,1.016719,0.890976,209.058569,788.025246
2.250000,1.016959,0.888316,208.455227,785.865658
2.260000,1.017188,0.885551,207.868279,783.591861
2.270000,1.017405,0.882682,207.301134,781.203699
2.280000,1.017609,0.879712,206.757081,778.701276
2.290000,1.017796,0.876644,206.239276,776.084973
2.300000,1.017967,0.873481,205.750722,773.355466
2.310000,1.018118,0.870227,205.294253,770.513742
2.320000,1.018248,0.866884,204.872518,767.561110
2.330000,1.018356,0.863456,204.487967,764.499213
2.340000,1.018440,0.859947,204.142837,761.330034
2.350000,1.018499,0.856362,203.839140,758.055903
2.360000,1.018531,0.852705,203.578656,754.679499
2.370000,1.018534,0.848980,203.362917,751.203851
2.380000,1.018509,0.845193,203.193206,747.632336
2.390000,1.018453,0.841348,203.070549,743.968672
2.400000,1.018366,0.837450,202.995710,740.216912
2.410000,1.018246,0.833505,202.969190,736.381434
2.420000,1.018094,0.829518,202.991227,732.466927
2.430000,1.017909,0.825495,203.061796,728.478381
2.440000,1.017689,0.821441,203.180612,724.421064
2.450000,1.017436,0.817363,203.347135,720.300507
2.460000,1.017149,0.813267,203.560578,716.122483
2.470000,1.016827,0.809157,203.819846,711.892940
2.480000,1.016471,0.805041,204.123128,707.617728
2.490000,1.016082,0.800923,204.469104,703.303396
2.500000,1.015658,0.796811,204.856333,698.956537
2.510000,1.015203,0.792709,205.283104,694.583697
2.520000,1.014715,0.788624,205.747376,690.191573
2.530000,1.014196,0.784562,206.246880,685.786975
2.540000,1.013647,0.780528,206.779270,681.376728
2.550000,1.013068,0.776528,207.342004,676.967695
2.560000,1.012463,0.772567,207.932386,672.566728
2.570000,1.011830,0.768650,208.547002,668.180252
2.580000,1.011173,0.764783,209.183277,663.815291
2.590000,1.010492,0.760969,209.838517,659.478644
2.600000,1.009789,0.757215,210.509841,655.176897
2.610000,1.009066,0.753525,211.194178,650.916174
2.620000,1.008324,0.749901,211.887708,646.701509
2.630000,1.007565,0.746348,212.587857,642.539986
2.640000,1.006792,0.742871,213.291781,638.437912
2.650000,1.006005,0.739472,213.996856,634.401081
2.660000,1.005208,0.736156,214.700316,630.435090
2.670000,1.004403,0.732926,215.399182,626.545459
2.680000,1.003591,0.729784,216.090604,622.737462
2.690000,1.002775,0.726733,216.771907,619.016126
2.700000,1.001957,0.723775,217.440483,615.386246
2.710000,1.001139,0.720913,218.093675,611.852421
2.720000,1.000323,0.718148,218.728907,608.419049
2.730000,0.999511,0.715483,219.343759,605.090296
2.740000,0.998705,0.712919,219.936137,601.870007
2.750000,0.997908,0.710457,220.504068,598.761726
2.760000,0.997121,0.708099,221.045249,595.769006
2.770000,0.996346,0.705845,221.557706,592.895133
2.780000,0.995586,0.703698,222.039622,590.143168
2.790000,0.994841,0.701656,222.489316,587.515955
2.800000,0.994114,0.699723,222.905238,585.016130
2.810000,0.993407,0.697897,223.285980,582.646125
2.820000,0.992720,0.696179,223.630377,580.408132
2.830000,0.992057,0.694571,223.937444,578.304092
2.840000,0.991417,0.693071,224.206029,576.335918
2.850000,0.990803,0.691682,224.435196,574.505295
2.860000,0.990215,0.690401,224.623447,572.813325
2.870000,0.989654,0.689230,224.769204,571.260953
2.880000,0.989122,0.688168,224.872271,569.849703
2.890000,0.988620,0.687217,224.933565,568.580894
2.900000,0.988148,0.686376,224.952994,567.455565
2.910000,0.987709,0.685647,224.930485,566.474600
2.920000,0.987302,0.685028,224.866200,565.638693
2.930000,0.986929,0.684521,224.760407,564.948387
2.940000,0.986590,0.684126,224.613482,564.404091
2.950000,0.986285,0.683842,224.425907,564.006081
2.960000,0.986016,0.683671,224.198281,563.754508
2.970000,0.985782,0.683612,223.931316,563.649400
2.980000,0.985584,0.683665,223.625841,563.690662
2.990000,0.985422,0.683831,223.282796,563.878079
3.000000,0.985296,0.684111,222.903233,564.211314
3.010000,0.985206,0.684504,222.488309,564.689907
3.020000,0.985152,0.685010,222.039290,565.313278
3.030000,0.985134,0.685630,221.557545,566.080722
3.040000,0.985151,0.686365,221.044543,566.991408
3.050000,0.985203,0.687213,220.501851,568.044379
3.060000,0.985290,0.688176,219.931131,569.238543
3.070000,0.985411,0.689253,219.334138,570.572678
3.080000,0.985565,0.690445,218.712711,572.045419
3.090000,0.985753,0.691751,218.068775,573.655263
3.100000,0.985972,0.693170,217.404334,575.400559
3.110000,0.986223,0.694704,216.721465,577.279504
3.120000,0.986504,0.696351,216.022318,579.290142
3.130000,0.986815,0.698111,215.309102,581.430356
3.140000,0.987154,0.699983,214.584089,583.697867
3.150000,0.987520,0.701967,213.849601,586.090226
3.160000,0.987913,0.704061,213.108005,588.604813
3.170000,0.988331,0.706264,212.361706,591.238832
3.180000,0.988772,0.708576,211.613143,593.989306
3.190000,0.989237,0.710994,210.864777,596.853076
3.200000,0.989722,0.713516,210.119084,599.826801
3.210000,0.990227,0.716142,209.378548,602.906949
3.220000,0.990751,0.718868,208.645647,606.089803
3.230000,0.991292,0.721693,207.922850,609.371458
3.240000,0.991849,0.724614,207.212647,612.747802
3.250000,0.992419,0.727627,206.517881,616.214286
3.260000,0.993001,0.730730,205.840055,619.766036
3.270000,0.993594,0.733919,205.180380,623.397969
3.280000,0.994196,0.737190,204.541043,627.105416
3.290000,0.994804,0.740540,203.924872,630.883868
3.300000,0.995419,0.743966,203.334229,634.728307
3.310000,0.996039,0.747462,202.771286,638.633423
3.320000,0.996662,0.751026,202.238244,642.593653
3.330000,0.997286,0.754652,201.736808,646.603429
3.340000,0.997910,0.758335,201.268638,650.657056
3.350000,0.998533,0.762071,200.835296,654.748710
3.360000,0.999154,0.765855,200.438201,658.872464
3.370000,0.999771,0.769680,200.078622,663.022300
3.380000,1.000382,0.773542,199.757662,667.192127
3.390000,1.000987,0.777436,199.476258,671.375799
3.400000,1.001584,0.781355,199.235359,675.567056
3.410000,1.002172,0.785294,199.035754,679.759550
3.420000,1.002750,0.789246,198.877633,683.947126
3.430000,1.003317,0.793207,198.761179,688.123612
3.440000,1.003871,0.797170,198.686416,692.282862
3.450000,1.004413,0.801128,198.653183,696.418781
3.460000,1.004941,0.805077,198.661128,700.525345
3.470000,1.005454,0.809010,198.709713,704.596621
3.480000,1.005953,0.812921,198.798258,708.626758
3.490000,1.006435,0.816804,198.925917,712.610008
3.500000,1.006901,0.820654,199.091641,716.540780
3.510000,1.007349,0.824465,199.294413,720.413566
3.520000,1.007781,0.828230,199.532601,724.223201
3.530000,1.008195,0.831945,199.804553,727.964706
3.540000,1.008592,0.835604,200.108519,731.633265
3.550000,1.008970,0.839202,200.441972,735.223030
3.560000,1.009330,0.842732,200.802906,738.730205
3.570000,1.009671,0.846192,201.189475,742.151171
3.580000,1.009996,0.849575,201.599490,745.482164
3.590000,1.010302,0.852878,202.030609,748.719681
3.600000,1.010592,0.856097,202.480314,751.860473
3.610000,1.010865,0.859226,202.945579,754.901268
3.620000,1.011121,0.862263,203.424049,757.839619
3.630000,1.011362,0.865203,203.913207,760.673220
3.640000,1.011588,0.868045,204.410402,763.399959
3.650000,1.011799,0.870783,204.912961,766.017985
3.660000,1.011997,0.873416,205.418207,768.525707
3.670000,1.012183,0.875940,205.923472,770.921791
3.680000,1.012356,0.878354,206.426119,773.205141
3.690000,1.012518,0.880655,206.923568,775.374887
3.700000,1.012669,0.882841,207.413274,777.430396
3.710000,1.012812,0.884909,207.892737,779.371274
3.720000,1.012945,0.886860,208.359494,781.197274
3.730000,1.013071,0.888691,208.810965,782.908145
3.740000,1.013190,0.890400,209.245081,784.504171
3.750000,1.013303,0.891988,209.659852,785.985821
3.760000,1.013410,0.893453,210.053292,787.353656
3.770000,1.013514,0.894796,210.423561,788.608357
3.780000,1.013615,0.896015,210.768970,789.750721
3.790000,1.013713,0.897110,211.087975,790.781647
3.800000,1.013809,0.898082,211.379191,791.702126
3.810000,1.013904,0.898930,211.641391,792.513225
3.820000,1.014000,0.899655,211.873520,793.216073
3.830000,1.014096,0.900258,212.074689,793.811850
3.840000,1.014193,0.900738,212.244187,794.301773
3.850000,1.014291,0.901097,212.381478,794.687084
3.860000,1.014392,0.901335,212.486207,794.969041
3.870000,1.014496,0.901454,212.558194,795.148904
3.880000,1.014602,0.901454,212.597439,795.227931
3.890000,1.014712,0.901336,212.604120,795.207367
3.900000,1.014826,0.901103,212.578589,795.088437
3.910000,1.014943,0.900754,212.521370,794.872341
3.920000,1.015064,0.900292,212.433154,794.560249
3.930000,1.015188,0.899718,212.314797,794.153299
3.940000,1.015317,0.899033,212.167311,793.652593
3.950000,1.015449,0.898239,211.991862,793.059196
3.960000,1.015584,0.897338,211.789760,792.374137
3.970000,1.015722,0.896332,211.562452,791.598408
3.980000,1.015864,0.895222,211.311515,790.732970
3.990000,1.016007,0.894010,211.038645,789.778753
4.000000,1.016152,0.892699,210.745652,788.736659
4.010000,1.016299,0.891290,210.434445,787.607570
4.020000,1.016446,0.889785,210.107025,786.392355
4.030000,1.016593,0.888187,209.765472,785.091869
4.040000,1.016739,0.886497,209.411937,783.706969
4.050000,1.016884,0.884719,209.048625,782.238514
