b:tnow in s,s:ut in p.u.,s:cur1 in p.u.,s:Q1 in Mvar,s:P1 in MW
0,0.982,0.81069,198.251784,520.811072
0.01,0.981762,0.81186,198.475572,521.442156
0.02,0.98176,0.811837,198.468139,521.426582
0.03,0.981756,0.81182,198.456225,521.415881
0.04,0.981753,0.811804,198.44384,521.407212
0.05,0.98175,0.811791,198.431656,521.400204
0.06,0.981748,0.811779,198.420004,521.394601
0.07,0.981746,0.811768,198.409014,521.390232
0.08,0.981746,0.811759,198.398703,521.38696
0.09,0.981746,0.811751,198.38903,521.384673
0.1,0.981747,0.811744,198.37993,521.383268
0.11,0.981748,0.811738,198.371329,521.382647
0.12,0.981749,0.811732,198.363154,521.38272
0.13,0.981751,0.811727,198.355338,521.383399
0.14,0.981753,0.811723,198.34782,521.384599
0.15,0.981756,0.81172,198.340548,521.38624
0.16,0.981759,0.811716,198.333476,521.388244
0.17,0.981762,0.811714,198.326565,521.390538
0.18,0.981765,0.811711,198.319785,521.39305
0.19,0.981768,0.811708,198.313107,521.395714
0.2,0.981772,0.811706,198.306512,521.398464
0.21,0.981775,0.811703,198.299982,521.401239
0.22,0.981779,0.8117,198.293503,521.403981
0.23,0.981783,0.811697,198.287066,521.406633
0.24,0.981787,0.811694,198.280663,521.409144
0.25,0.981791,0.811691,198.27429,521.411463
0.26,0.981795,0.811687,198.267943,521.413542
0.27,0.9818,0.811682,198.261623,521.415338
0.28,0.981804,0.811677,198.255329,521.416808
0.29,0.981809,0.811672,198.249064,521.417914
0.3,0.981813,0.811666,198.242831,521.41862
0.31,0.981818,0.811659,198.236635,521.418893
0.32,0.981823,0.811652,198.230481,521.418701
0.33,0.981828,0.811643,198.224374,521.418018
0.34,0.981833,0.811634,198.218321,521.416819
0.35,0.981838,0.811625,198.212329,521.415083
0.36,0.981843,0.811614,198.206405,521.41279
0.37,0.981848,0.811603,198.200558,521.409925
0.38,0.981853,0.811591,198.194794,521.406476
0.39,0.981859,0.811578,198.189122,521.402432
0.4,0.981864,0.811565,198.183551,521.397788
0.41,0.981869,0.81155,198.178088,521.392538
0.42,0.981875,0.811535,198.172741,521.386684
0.43,0.98188,0.811519,198.167519,521.380226
0.44,0.981885,0.811503,198.162431,521.37317
0.45,0.981891,0.811485,198.157482,521.365524
0.46,0.981896,0.811467,198.152683,521.3573
0.47,0.981902,0.811448,198.14804,521.34851
0.48,0.981907,0.811429,198.14356,521.339171
0.49,0.981912,0.811409,198.13925,521.329302
0.5,0.981918,0.811388,198.135118,521.318925
0.51,0.981923,0.811367,198.13117,521.308063
0.52,0.981928,0.811346,198.127412,521.296743
0.53,0.981933,0.811324,198.12385,521.284994
0.54,0.981938,0.811301,198.120489,521.272846
0.55,0.981943,0.811278,198.117335,521.260332
0.56,0.981948,0.811256,198.114391,521.247486
0.57,0.981952,0.811232,198.111662,521.234345
0.58,0.981957,0.811209,198.109152,521.220946
0.59,0.981961,0.811186,198.106865,521.207329
0.6,0.981966,0.811162,198.104802,521.193535
0.61,0.98197,0.811139,198.102967,521.179605
0.62,0.981974,0.811116,198.101362,521.165581
0.63,0.981978,0.811093,198.099987,521.151508
0.64,0.981982,0.81107,198.098845,521.137429
0.65,0.981985,0.811047,198.097935,521.12339
0.66,0.981989,0.811025,198.097257,521.109435
0.67,0.981992,0.811004,198.096812,521.095609
0.68,0.981995,0.810982,198.096597,521.081958
0.69,0.981997,0.810962,198.096613,521.068526
0.7,0.982,0.810942,198.096857,521.055359
0.71,0.982002,0.810923,198.097326,521.042501
0.72,0.982004,0.810904,198.098018,521.029996
0.73,0.982006,0.810887,198.09893,521.017885
0.74,0.982008,0.81087,198.100058,521.006212
0.75,0.982009,0.810855,198.101398,520.995018
0.76,0.98201,0.81084,198.102946,520.984341
0.77,0.982011,0.810826,198.104697,520.974221
0.78,0.982012,0.810814,198.106644,520.964693
0.79,0.982012,0.810803,198.108784,520.955795
0.8,0.982013,0.810792,198.111109,520.947559
0.81,0.982012,0.810784,198.113613,520.940017
0.82,0.982012,0.810776,198.11629,520.933198
0.83,0.982011,0.81077,198.119133,520.927131
0.84,0.98201,0.810765,198.122134,520.921842
0.85,0.982009,0.810761,198.125286,520.917353
0.86,0.982008,0.810759,198.12858,520.913686
0.87,0.982006,0.810759,198.13201,520.910859
0.88,0.982004,0.81076,198.135566,520.90889
0.89,0.982002,0.810762,198.13924,520.907791
0.9,0.981999,0.810766,198.143024,520.907575
0.91,0.981996,0.810771,198.146908,520.90825
0.92,0.981993,0.810778,198.150884,520.909822
0.93,0.98199,0.810786,198.154943,520.912295
0.94,0.981986,0.810795,198.159075,520.915669
0.95,0.981983,0.810807,198.163272,520.919943
0.96,0.981979,0.810819,198.167523,520.925112
0.97,0.981974,0.810833,198.17182,520.93117
0.98,0.98197,0.810848,198.176154,520.938106
0.99,0.981965,0.810865,198.180515,520.945908
1,0.98196,0.810883,198.184894,520.954562
1.01,0.981955,0.810903,198.189282,520.96405
1.02,0.98195,0.810924,198.19367,520.974351
1.03,0.981944,0.810945,198.198048,520.985445
1.04,0.981938,0.810969,198.202408,520.997305
1.05,0.981932,0.810993,198.206742,521.009905
1.06,0.981926,0.811018,198.211039,521.023216
1.07,0.98192,0.811045,198.215294,521.037206
1.08,0.981914,0.811072,198.219496,521.051842
1.09,0.981907,0.8111,198.223638,521.067089
1.1,0.9819,0.811129,198.227712,521.082909
1.11,0.981894,0.811159,198.231711,521.099264
1.12,0.981887,0.81119,198.235628,521.116112
1.13,0.98188,0.811221,198.239454,521.133412
1.14,0.981873,0.811253,198.243185,521.151121
1.15,0.981865,0.811286,198.246813,521.169193
1.16,0.981858,0.811318,198.250332,521.187584
1.17,0.981851,0.811352,198.253736,521.206245
1.18,0.981844,0.811385,198.257021,521.225131
1.19,0.981836,0.811419,198.26018,521.244191
1.2,0.981829,0.811452,198.26321,521.263378
1.21,0.981821,0.811486,198.266105,521.282641
1.22,0.981814,0.81152,198.268862,521.301933
1.23,0.981807,0.811554,198.271476,521.321202
1.24,0.981799,0.811587,198.273946,521.3404
1.25,0.981792,0.81162,198.276267,521.359477
1.26,0.981785,0.811653,198.278438,521.378383
1.27,0.981778,0.811685,198.280456,521.397071
1.28,0.981771,0.811717,198.282319,521.415493
1.29,0.981764,0.811748,198.284027,521.433601
1.3,0.981757,0.811779,198.285577,521.451349
1.31,0.98175,0.811809,198.28697,521.468692
1.32,0.981743,0.811838,198.288205,521.485586
1.33,0.981737,0.811866,198.289283,521.501989
1.34,0.981731,0.811894,198.290203,521.517859
1.35,0.981724,0.81192,198.290967,521.533157
1.36,0.981718,0.811945,198.291576,521.547846
1.37,0.981713,0.811969,198.292032,521.561889
1.38,0.981707,0.811992,198.292336,521.575252
1.39,0.981701,0.812014,198.292491,521.587904
1.4,0.981696,0.812035,198.292498,521.599814
1.41,0.981691,0.812054,198.292362,521.610955
1.42,0.981686,0.812072,198.292086,521.621303
1.43,0.981682,0.812089,198.291671,521.630833
1.44,0.981677,0.812104,198.291124,521.639526
1.45,0.981673,0.812117,198.290446,521.647364
1.46,0.981669,0.81213,198.289643,521.654331
1.47,0.981666,0.812141,198.288718,521.660415
1.48,0.981662,0.81215,198.287677,521.665606
1.49,0.981659,0.812158,198.286524,521.669897
1.5,0.981656,0.812164,198.285264,521.673282
1.51,0.981653,0.812169,198.283902,521.67576
1.52,0.981651,0.812172,198.282444,521.677331
1.53,0.981649,0.812174,198.280894,521.677999
1.54,0.981647,0.812175,198.279258,521.67777
1.55,0.981645,0.812173,198.277542,521.676653
1.56,0.981644,0.812171,198.275751,521.674658
1.57,0.981643,0.812167,198.273891,521.6718
1.58,0.981642,0.812161,198.271967,521.668094
1.59,0.981642,0.812155,198.269986,521.663559
1.6,0.981642,0.812147,198.267952,521.658217
1.61,0.981642,0.812137,198.265872,521.652091
1.62,0.981642,0.812126,198.263751,521.645205
1.63,0.981642,0.812115,198.261595,521.637589
1.64,0.981643,0.812101,198.259409,521.62927
1.65,0.981644,0.812087,198.257199,521.620281
1.66,0.981646,0.812072,198.254969,521.610654
1.67,0.981647,0.812056,198.252726,521.600425
1.68,0.981649,0.812038,198.250474,521.589629
1.69,0.981651,0.81202,198.248218,521.578305
1.7,0.981653,0.812001,198.245964,521.566491
1.71,0.981656,0.811981,198.243715,521.554227
1.72,0.981658,0.811961,198.241477,521.541555
1.73,0.981661,0.811939,198.239254,521.528516
1.74,0.981664,0.811917,198.23705,521.515152
1.75,0.981667,0.811895,198.234869,521.501508
1.76,0.981671,0.811872,198.232715,521.487626
1.77,0.981674,0.811849,198.230592,521.473549
1.78,0.981678,0.811826,198.228503,521.459323
1.79,0.981682,0.811802,198.226452,521.44499
1.8,0.981686,0.811778,198.224441,521.430595
1.81,0.98169,0.811754,198.222474,521.41618
1.82,0.981694,0.81173,198.220554,521.401788
1.83,0.981699,0.811706,198.218682,521.387461
1.84,0.981703,0.811682,198.216862,521.373242
1.85,0.981708,0.811658,198.215095,521.359169
1.86,0.981713,0.811634,198.213385,521.345284
1.87,0.981717,0.811611,198.211731,521.331624
1.88,0.981722,0.811588,198.210137,521.318226
1.89,0.981727,0.811565,198.208603,521.305126
1.9,0.981732,0.811543,198.207132,521.29236
1.91,0.981737,0.811521,198.205723,521.279958
1.92,0.981742,0.8115,198.204379,521.267953
1.93,0.981747,0.811479,198.203099,521.256375
1.94,0.981752,0.811459,198.201886,521.24525
1.95,0.981757,0.81144,198.200739,521.234604
1.96,0.981763,0.811421,198.199658,521.224462
1.97,0.981768,0.811403,198.198646,521.214845
1.98,0.981773,0.811386,198.1977,521.205774
1.99,0.981778,0.81137,198.196823,521.197265
2,0.981783,0.811355,198.196013,521.189334
2.01,0.981788,0.81134,198.195271,521.181996
2.02,0.981793,0.811327,198.194597,521.175262
2.03,0.981798,0.811314,198.193991,521.169141
2.04,0.981802,0.811302,198.193452,521.163639
2.05,0.981807,0.811292,198.19298,521.158764
2.06,0.981812,0.811282,198.192576,521.154516
2.07,0.981816,0.811273,198.192238,521.150898
2.08,0.981821,0.811265,198.191966,521.147908
2.09,0.981825,0.811258,198.191761,521.145543
2.1,0.981829,0.811252,198.191621,521.143799
2.11,0.981834,0.811247,198.191546,521.142667
2.12,0.981838,0.811243,198.191536,521.142141
2.13,0.981842,0.81124,198.19159,521.142208
2.14,0.981845,0.811238,198.191708,521.142858
2.15,0.981849,0.811236,198.19189,521.144076
2.16,0.981853,0.811236,198.192135,521.145848
2.17,0.981856,0.811237,198.192443,521.148156
2.18,0.981859,0.811238,198.192814,521.150982
2.19,0.981862,0.81124,198.193247,521.154308
2.2,0.981865,0.811243,198.193742,521.158113
2.21,0.981868,0.811247,198.194298,521.162375
2.22,0.981871,0.811251,198.194916,521.167072
2.23,0.981873,0.811257,198.195595,521.172182
2.24,0.981876,0.811262,198.196335,521.177679
2.25,0.981878,0.811269,198.197136,521.18354
2.26,0.98188,0.811276,198.197997,521.18974
2.27,0.981882,0.811284,198.198918,521.196253
2.28,0.981884,0.811292,198.1999,521.203053
2.29,0.981885,0.811301,198.200943,521.210114
2.3,0.981887,0.81131,198.202045,521.217411
2.31,0.981888,0.81132,198.203207,521.224916
2.32,0.981889,0.81133,198.204429,521.232605
2.33,0.98189,0.811341,198.20571,521.240452
2.34,0.981891,0.811352,198.207052,521.24843
2.35,0.981891,0.811363,198.208452,521.256515
2.36,0.981892,0.811375,198.209912,521.264683
2.37,0.981892,0.811386,198.211431,521.272908
2.38,0.981892,0.811398,198.213009,521.281169
2.39,0.981892,0.81141,198.214646,521.289441
2.4,0.981892,0.811423,198.216341,521.297704
2.41,0.981892,0.811435,198.218094,521.305935
2.42,0.981891,0.811447,198.219904,521.314115
2.43,0.981891,0.81146,198.221772,521.322225
2.44,0.98189,0.811472,198.223697,521.330245
2.45,0.981889,0.811485,198.225678,521.338159
2.46,0.981888,0.811497,198.227714,521.345951
2.47,0.981887,0.81151,198.229806,521.353605
2.48,0.981886,0.811522,198.231951,521.361107
2.49,0.981884,0.811534,198.23415,521.368445
2.5,0.981883,0.811547,198.236401,521.375607
2.51,0.981881,0.811559,198.238703,521.382583
2.52,0.981879,0.81157,198.241056,521.389363
2.53,0.981878,0.811582,198.243457,521.395939
2.54,0.981876,0.811594,198.245905,521.402304
2.55,0.981873,0.811605,198.248399,521.408452
2.56,0.981871,0.811616,198.250938,521.414379
2.57,0.981869,0.811627,198.253519,521.420081
2.58,0.981867,0.811638,198.256141,521.425556
2.59,0.981864,0.811648,198.258803,521.430803
2.6,0.981862,0.811659,198.2615,521.435821
2.61,0.981859,0.811669,198.264233,521.440611
2.62,0.981857,0.811679,198.266998,521.445174
2.63,0.981854,0.811688,198.269793,521.449514
2.64,0.981851,0.811698,198.272616,521.453633
2.65,0.981848,0.811707,198.275463,521.457536
2.66,0.981845,0.811716,198.278333,521.461228
2.67,0.981842,0.811724,198.281223,521.464715
2.68,0.981839,0.811733,198.284129,521.468004
2.69,0.981836,0.811741,198.287049,521.471101
2.7,0.981833,0.811749,198.289979,521.474013
2.71,0.98183,0.811757,198.292917,521.47675
2.72,0.981827,0.811764,198.295858,521.47932
2.73,0.981824,0.811772,198.298801,521.481731
2.74,0.981821,0.811779,198.301741,521.483994
2.75,0.981818,0.811786,198.304676,521.486116
2.76,0.981815,0.811793,198.307601,521.488109
2.77,0.981812,0.811799,198.310514,521.489981
2.78,0.981809,0.811806,198.31341,521.491743
2.79,0.981805,0.811812,198.316286,521.493405
2.8,0.981802,0.811818,198.319139,521.494977
2.81,0.981799,0.811824,198.321965,521.496468
2.82,0.981796,0.81183,198.324761,521.497888
2.83,0.981793,0.811836,198.327523,521.499247
2.84,0.98179,0.811841,198.330248,521.500554
2.85,0.981788,0.811847,198.332931,521.501818
2.86,0.981785,0.811852,198.335571,521.503048
2.87,0.981782,0.811857,198.338163,521.504251
2.88,0.981779,0.811863,198.340704,521.505437
2.89,0.981776,0.811868,198.343191,521.506612
2.9,0.981774,0.811873,198.345621,521.507783
2.91,0.981771,0.811878,198.347991,521.508957
2.92,0.981769,0.811883,198.350298,521.51014
2.93,0.981766,0.811887,198.35254,521.511338
2.94,0.981764,0.811892,198.354712,521.512555
2.95,0.981762,0.811897,198.356814,521.513796
2.96,0.98176,0.811901,198.358843,521.515065
2.97,0.981758,0.811906,198.360796,521.516365
2.98,0.981756,0.81191,198.362671,521.517698
2.99,0.981754,0.811914,198.364467,521.519066
3,0.981752,0.811919,198.366181,521.520472
3.01,0.981751,0.811923,198.367812,521.521915
3.02,0.981749,0.811927,198.369359,521.523396
3.03,0.981748,0.811931,198.370821,521.524914
3.04,0.981746,0.811935,198.372196,521.526469
3.05,0.981745,0.811939,198.373484,521.528059
3.06,0.981744,0.811942,198.374684,521.529681
3.07,0.981743,0.811946,198.375795,521.531335
3.08,0.981742,0.811949,198.376818,521.533015
3.09,0.981742,0.811953,198.377752,521.534719
3.1,0.981741,0.811956,198.378598,521.536443
3.11,0.98174,0.811959,198.379356,521.538181
3.12,0.98174,0.811962,198.380026,521.53993
3.13,0.98174,0.811965,198.38061,521.541684
3.14,0.98174,0.811968,198.381108,521.543437
3.15,0.98174,0.81197,198.381521,521.545184
3.16,0.98174,0.811973,198.381852,521.546918
3.17,0.98174,0.811975,198.382101,521.548633
3.18,0.981741,0.811977,198.382271,521.550322
3.19,0.981741,0.811979,198.382363,521.551978
3.2,0.981742,0.811981,198.382379,521.553595
3.21,0.981743,0.811982,198.382323,521.555165
3.22,0.981743,0.811983,198.382195,521.556681
3.23,0.981744,0.811984,198.382,521.558136
3.24,0.981746,0.811985,198.38174,521.559524
3.25,0.981747,0.811986,198.381417,521.560836
3.26,0.981748,0.811986,198.381035,521.562067
3.27,0.98175,0.811986,198.380598,521.563208
3.28,0.981751,0.811986,198.380108,521.564254
3.29,0.981753,0.811986,198.379569,521.565198
3.3,0.981755,0.811985,198.378985,521.566034
3.31,0.981756,0.811984,198.378359,521.566755
3.32,0.981758,0.811983,198.377695,521.567356
3.33,0.98176,0.811982,198.376997,521.567831
3.34,0.981763,0.81198,198.376269,521.568176
3.35,0.981765,0.811978,198.375515,521.568385
3.36,0.981767,0.811976,198.374739,521.568455
3.37,0.981769,0.811974,198.373945,521.568381
3.38,0.981772,0.811971,198.373137,521.568161
3.39,0.981774,0.811968,198.372319,521.56779
3.4,0.981777,0.811965,198.371495,521.567268
3.41,0.98178,0.811961,198.370669,521.566591
3.42,0.981782,0.811957,198.369846,521.565758
3.43,0.981785,0.811953,198.36903,521.564768
3.44,0.981788,0.811949,198.368223,521.563622
3.45,0.981791,0.811944,198.367432,521.562318
3.46,0.981794,0.81194,198.366658,521.560859
3.47,0.981796,0.811935,198.365907,521.559244
3.48,0.981799,0.811929,198.365182,521.557476
3.49,0.981802,0.811924,198.364487,521.555558
3.5,0.981805,0.811918,198.363824,521.553492
3.51,0.981808,0.811912,198.363199,521.551282
3.52,0.981811,0.811907,198.362613,521.548932
3.53,0.981814,0.8119,198.362071,521.546446
3.54,0.981817,0.811894,198.361576,521.54383
3.55,0.98182,0.811888,198.36113,521.54109
3.56,0.981823,0.811881,198.360736,521.538231
3.57,0.981826,0.811874,198.360397,521.53526
3.58,0.981829,0.811867,198.360116,521.532185
3.59,0.981832,0.811861,198.359895,521.529012
3.6,0.981835,0.811854,198.359737,521.525751
3.61,0.981838,0.811847,198.359643,521.522409
3.62,0.981841,0.81184,198.359615,521.518996
3.63,0.981844,0.811833,198.359655,521.51552
3.64,0.981847,0.811825,198.359765,521.511992
3.65,0.98185,0.811818,198.359947,521.50842
3.66,0.981852,0.811811,198.3602,521.504816
3.67,0.981855,0.811804,198.360527,521.50119
3.68,0.981858,0.811797,198.360929,521.497552
3.69,0.98186,0.811791,198.361405,521.493912
3.7,0.981863,0.811784,198.361958,521.490283
3.71,0.981865,0.811777,198.362586,521.486676
3.72,0.981868,0.811771,198.36329,521.4831
3.73,0.98187,0.811765,198.36407,521.479569
3.74,0.981872,0.811758,198.364927,521.476092
3.75,0.981874,0.811753,198.365859,521.472681
3.76,0.981876,0.811747,198.366866,521.469348
3.77,0.981878,0.811741,198.367948,521.466104
3.78,0.98188,0.811736,198.369104,521.462959
3.79,0.981882,0.811731,198.370333,521.459924
3.8,0.981884,0.811726,198.371634,521.457011
3.81,0.981885,0.811722,198.373005,521.454229
3.82,0.981887,0.811718,198.374445,521.45159
3.83,0.981889,0.811714,198.375953,521.449101
3.84,0.98189,0.81171,198.377527,521.446775
3.85,0.981891,0.811707,198.379165,521.444619
3.86,0.981892,0.811704,198.380866,521.442642
3.87,0.981894,0.811702,198.382628,521.440853
3.88,0.981895,0.8117,198.384448,521.439261
3.89,0.981896,0.811698,198.386324,521.437872
3.9,0.981896,0.811697,198.388255,521.436694
3.91,0.981897,0.811696,198.390237,521.435734
3.92,0.981898,0.811695,198.392269,521.434997
3.93,0.981898,0.811695,198.394348,521.434488
3.94,0.981899,0.811696,198.396471,521.434214
3.95,0.981899,0.811696,198.398636,521.434179
3.96,0.981899,0.811698,198.40084,521.434385
3.97,0.9819,0.811699,198.403082,521.434836
3.98,0.9819,0.811701,198.405357,521.435536
3.99,0.9819,0.811704,198.407663,521.436485
4,0.9819,0.811707,198.409999,521.437685
4.01,0.9819,0.81171,198.41236,521.439136
4.02,0.981899,0.811714,198.414744,521.440839
4.03,0.981899,0.811718,198.417149,521.442793
4.04,0.981898,0.811723,198.419572,521.444996
4.05,0.981898,0.811728,198.42201,521.447447
4.06,0.981897,0.811733,198.42446,521.450142
4.07,0.981897,0.811739,198.42692,521.453079
4.08,0.981896,0.811745,198.429387,521.456253
4.09,0.981895,0.811752,198.431859,521.459659
4.1,0.981894,0.811759,198.434333,521.463294
4.11,0.981893,0.811766,198.436806,521.467149
4.12,0.981892,0.811774,198.439277,521.471221
4.13,0.981891,0.811782,198.441742,521.4755
4.14,0.98189,0.81179,198.4442,521.479981
4.15,0.981889,0.811799,198.446647,521.484654
4.16,0.981887,0.811808,198.449083,521.489511
4.17,0.981886,0.811817,198.451504,521.494542
4.18,0.981884,0.811826,198.453909,521.49974
4.19,0.981883,0.811836,198.456296,521.505093
4.2,0.981882,0.811846,198.458662,521.51059
4.21,0.98188,0.811856,198.461006,521.516222
4.22,0.981878,0.811867,198.463326,521.521977
4.23,0.981877,0.811877,198.46562,521.527843
4.24,0.981875,0.811888,198.467887,521.533809
4.25,0.981873,0.811899,198.470126,521.539863
4.26,0.981872,0.81191,198.472333,521.545992
4.27,0.98187,0.811921,198.474509,521.552184
4.28,0.981868,0.811932,198.476652,521.558427
4.29,0.981866,0.811943,198.478761,521.564707
4.3,0.981864,0.811954,198.480834,521.571011
4.31,0.981862,0.811965,198.48287,521.577328
4.32,0.981861,0.811976,198.484869,521.583643
4.33,0.981859,0.811987,198.486829,521.589944
4.34,0.981857,0.811999,198.48875,521.596218
4.35,0.981855,0.81201,198.490631,521.602452
4.36,0.981853,0.812021,198.492471,521.608634
4.37,0.981851,0.812031,198.49427,521.614751
4.38,0.981849,0.812042,198.496026,521.62079
