b:tnow in s,s:ut in p.u.,s:cur1 in p.u.,s:Q1 in Mvar,s:P1 in MW
0,1.0265,0.808879,22.841625,830
0.01,1.025852,0.812106,23.012079,832.782706
0.02,1.025829,0.812055,22.965876,832.712702
0.03,1.025813,0.811994,22.927292,832.638662
0.04,1.025803,0.811928,22.893471,832.563091
0.05,1.025797,0.811857,22.863644,832.486179
0.06,1.025795,0.811782,22.837299,832.408127
0.07,1.025797,0.811702,22.813957,832.328891
0.08,1.025801,0.81162,22.793235,832.248401
0.09,1.025809,0.811533,22.774818,832.166575
0.1,1.02582,0.811443,22.758447,832.083349
0.11,1.025832,0.81135,22.743906,831.998689
0.12,1.025847,0.811254,22.731012,831.912591
0.13,1.025864,0.811155,22.719611,831.825088
0.14,1.025883,0.811054,22.709575,831.736247
0.15,1.025903,0.81095,22.700789,831.646165
0.16,1.025925,0.810844,22.693158,831.554967
0.17,1.025948,0.810736,22.686597,831.462805
0.18,1.025972,0.810626,22.681031,831.369848
0.19,1.025997,0.810515,22.676394,831.276287
0.2,1.026023,0.810402,22.672626,831.182325
0.21,1.02605,0.810289,22.669673,831.088178
0.22,1.026078,0.810176,22.667486,830.994071
0.23,1.026106,0.810062,22.666019,830.900237
0.24,1.026135,0.809948,22.665228,830.806912
0.25,1.026164,0.809835,22.665075,830.714335
0.26,1.026193,0.809723,22.665519,830.622749
0.27,1.026223,0.809611,22.666525,830.532392
0.28,1.026253,0.809501,22.668056,830.443503
0.29,1.026282,0.809393,22.670078,830.356316
0.3,1.026312,0.809287,22.672557,830.27106
0.31,1.026342,0.809182,22.67546,830.18796
0.32,1.026371,0.809081,22.678755,830.107231
0.33,1.0264,0.808982,22.682408,830.029082
0.34,1.026429,0.808886,22.686389,829.953713
0.35,1.026457,0.808793,22.690666,829.881313
0.36,1.026485,0.808704,22.695209,829.812062
0.37,1.026512,0.808619,22.699986,829.746126
0.38,1.026538,0.808537,22.704967,829.683664
0.39,1.026563,0.80846,22.710123,829.624816
0.4,1.026588,0.808387,22.715424,829.569716
0.41,1.026612,0.808319,22.720841,829.518479
0.42,1.026635,0.808255,22.726346,829.471209
0.43,1.026657,0.808196,22.731911,829.427997
0.44,1.026677,0.808141,22.737509,829.388916
0.45,1.026697,0.808092,22.743114,829.354027
0.46,1.026716,0.808048,22.748699,829.323378
0.47,1.026733,0.808009,22.754241,829.296998
0.48,1.026749,0.807974,22.759715,829.274906
0.49,1.026764,0.807945,22.765099,829.257102
0.5,1.026778,0.807922,22.77037,829.243574
0.51,1.02679,0.807903,22.775507,829.234297
0.52,1.026802,0.807889,22.780492,829.229227
0.53,1.026811,0.807881,22.785306,829.228311
0.54,1.02682,0.807877,22.78993,829.231481
0.55,1.026827,0.807879,22.794351,829.238654
0.56,1.026833,0.807885,22.798552,829.249735
0.57,1.026838,0.807896,22.80252,829.26462
0.58,1.026841,0.807911,22.806244,829.283188
0.59,1.026843,0.807931,22.809713,829.30531
0.6,1.026844,0.807956,22.812918,829.330847
0.61,1.026844,0.807984,22.815852,829.359647
0.62,1.026842,0.808017,22.818507,829.391551
0.63,1.026839,0.808053,22.82088,829.42639
0.64,1.026835,0.808092,22.822967,829.46399
0.65,1.02683,0.808136,22.824765,829.504166
0.66,1.026824,0.808182,22.826276,829.546728
0.67,1.026817,0.808231,22.827498,829.591483
0.68,1.026809,0.808283,22.828435,829.638229
0.69,1.0268,0.808337,22.829091,829.686763
0.7,1.02679,0.808394,22.829469,829.736879
0.71,1.026779,0.808453,22.829577,829.788366
0.72,1.026768,0.808513,22.829421,829.841015
0.73,1.026755,0.808575,22.82901,829.894614
0.74,1.026742,0.808638,22.828353,829.948951
0.75,1.026729,0.808702,22.827461,830.003818
0.76,1.026715,0.808767,22.826346,830.059006
0.77,1.0267,0.808832,22.82502,830.114309
0.78,1.026685,0.808898,22.823497,830.169526
0.79,1.02667,0.808963,22.82179,830.224458
0.8,1.026654,0.809029,22.819915,830.278911
0.81,1.026638,0.809094,22.817886,830.332699
0.82,1.026622,0.809158,22.815721,830.38564
0.83,1.026606,0.809221,22.813435,830.43756
0.84,1.026589,0.809283,22.811045,830.48829
0.85,1.026573,0.809344,22.808569,830.537671
0.86,1.026556,0.809404,22.806023,830.585553
0.87,1.02654,0.809462,22.803427,830.631794
0.88,1.026524,0.809518,22.800796,830.676261
0.89,1.026508,0.809572,22.798149,830.718831
0.9,1.026492,0.809624,22.795504,830.759392
0.91,1.026476,0.809673,22.792878,830.79784
0.92,1.026461,0.809721,22.790287,830.834085
0.93,1.026446,0.809765,22.78775,830.868044
0.94,1.026432,0.809807,22.785281,830.899648
0.95,1.026418,0.809847,22.782898,830.928838
0.96,1.026404,0.809884,22.780616,830.955566
0.97,1.026391,0.809917,22.778449,830.979795
0.98,1.026378,0.809948,22.776412,831.001499
0.99,1.026366,0.809977,22.774518,831.020664
1,1.026355,0.810002,22.77278,831.037285
1.01,1.026344,0.810024,22.771211,831.05137
1.02,1.026333,0.810044,22.76982,831.062936
1.03,1.026324,0.81006,22.768619,831.07201
1.04,1.026315,0.810074,22.767616,831.07863
1.05,1.026306,0.810084,22.76682,831.082843
1.06,1.026298,0.810093,22.766238,831.084705
1.07,1.026291,0.810098,22.765876,831.084282
1.08,1.026284,0.810101,22.76574,831.081647
1.09,1.026278,0.810101,22.765833,831.076882
1.1,1.026273,0.810098,22.766158,831.070077
1.11,1.026268,0.810094,22.766717,831.061326
1.12,1.026263,0.810087,22.767512,831.050733
1.13,1.02626,0.810078,22.768542,831.038407
1.14,1.026257,0.810067,22.769805,831.02446
1.15,1.026254,0.810054,22.7713,831.009012
1.16,1.026252,0.810039,22.773023,830.992185
1.17,1.02625,0.810023,22.774969,830.974107
1.18,1.026249,0.810005,22.777134,830.954905
1.19,1.026248,0.809986,22.77951,830.934712
1.2,1.026248,0.809966,22.782091,830.913661
1.21,1.026248,0.809945,22.784868,830.891887
1.22,1.026248,0.809923,22.787833,830.869525
1.23,1.026249,0.8099,22.790975,830.846711
1.24,1.02625,0.809877,22.794284,830.823577
1.25,1.026251,0.809853,22.797749,830.800259
1.26,1.026253,0.80983,22.801358,830.776888
1.27,1.026254,0.809806,22.805098,830.753592
1.28,1.026256,0.809782,22.808957,830.730499
1.29,1.026258,0.809758,22.812921,830.707731
1.3,1.02626,0.809735,22.816975,830.685407
1.31,1.026262,0.809712,22.821106,830.663644
1.32,1.026264,0.80969,22.8253,830.642551
1.33,1.026267,0.809669,22.829541,830.622233
1.34,1.026269,0.809648,22.833814,830.60279
1.35,1.026271,0.809629,22.838105,830.584316
1.36,1.026273,0.80961,22.842399,830.566898
1.37,1.026275,0.809593,22.84668,830.550619
1.38,1.026277,0.809577,22.850933,830.535552
1.39,1.026279,0.809562,22.855144,830.521766
1.4,1.02628,0.809549,22.859298,830.50932
1.41,1.026282,0.809537,22.863381,830.498268
1.42,1.026283,0.809527,22.867379,830.488656
1.43,1.026284,0.809518,22.871278,830.480522
1.44,1.026284,0.809511,22.875065,830.473896
1.45,1.026285,0.809506,22.878728,830.468802
1.46,1.026285,0.809502,22.882254,830.465256
1.47,1.026285,0.809501,22.885632,830.463264
1.48,1.026285,0.8095,22.88885,830.462829
1.49,1.026284,0.809502,22.891899,830.463942
1.5,1.026284,0.809505,22.894769,830.46659
1.51,1.026283,0.80951,22.89745,830.470751
1.52,1.026281,0.809517,22.899935,830.476397
1.53,1.02628,0.809525,22.902217,830.483493
1.54,1.026278,0.809535,22.904288,830.491997
1.55,1.026276,0.809546,22.906143,830.501863
1.56,1.026273,0.809559,22.907777,830.513036
1.57,1.026271,0.809573,22.909186,830.525457
1.58,1.026268,0.809589,22.910367,830.539061
1.59,1.026265,0.809605,22.911316,830.553779
1.6,1.026262,0.809623,22.912034,830.569536
1.61,1.026259,0.809642,22.912518,830.586255
1.62,1.026255,0.809662,22.91277,830.603852
1.63,1.026251,0.809683,22.91279,830.622242
1.64,1.026247,0.809705,22.912579,830.641335
1.65,1.026244,0.809727,22.912142,830.661039
1.66,1.02624,0.80975,22.911481,830.681262
1.67,1.026236,0.809773,22.9106,830.701905
1.68,1.026231,0.809797,22.909505,830.722873
1.69,1.026227,0.80982,22.908201,830.744067
1.7,1.026223,0.809844,22.906695,830.765387
1.71,1.026219,0.809868,22.904994,830.786733
1.72,1.026215,0.809892,22.903106,830.808008
1.73,1.026211,0.809916,22.90104,830.829112
1.74,1.026208,0.809939,22.898804,830.849947
1.75,1.026204,0.809962,22.896408,830.870417
1.76,1.026201,0.809984,22.893863,830.890427
1.77,1.026197,0.810005,22.891179,830.909886
1.78,1.026194,0.810026,22.888367,830.928703
1.79,1.026192,0.810045,22.885439,830.94679
1.8,1.026189,0.810064,22.882406,830.964064
1.81,1.026187,0.810082,22.879282,830.980444
1.82,1.026185,0.810098,22.876078,830.995853
1.83,1.026183,0.810113,22.872807,831.010219
1.84,1.026182,0.810127,22.869483,831.023471
1.85,1.026181,0.81014,22.866117,831.035548
1.86,1.026181,0.81015,22.862724,831.046388
1.87,1.026181,0.81016,22.859317,831.055938
1.88,1.026181,0.810167,22.85591,831.064148
1.89,1.026182,0.810173,22.852514,831.070975
1.9,1.026183,0.810177,22.849144,831.076379
1.91,1.026185,0.81018,22.845813,831.080328
1.92,1.026187,0.81018,22.842534,831.082795
1.93,1.02619,0.810179,22.839319,831.083757
1.94,1.026193,0.810176,22.836181,831.083199
1.95,1.026197,0.810171,22.833132,831.081111
1.96,1.026201,0.810164,22.830185,831.077489
1.97,1.026206,0.810155,22.827351,831.072335
1.98,1.026211,0.810145,22.824641,831.065656
1.99,1.026216,0.810132,22.822065,831.057466
2,1.026222,0.810118,22.819636,831.047783
2.01,1.026229,0.810102,22.817361,831.036634
2.02,1.026236,0.810084,22.815251,831.024047
2.03,1.026244,0.810064,22.813315,831.010059
2.04,1.026252,0.810043,22.811561,830.994712
2.05,1.02626,0.81002,22.809996,830.97805
2.06,1.026269,0.809995,22.808628,830.960126
2.07,1.026278,0.809969,22.807464,830.940995
2.08,1.026288,0.809942,22.806508,830.920718
2.09,1.026298,0.809913,22.805766,830.89936
2.1,1.026308,0.809883,22.805243,830.876989
2.11,1.026319,0.809852,22.804943,830.85368
2.12,1.02633,0.80982,22.804868,830.829507
2.13,1.026342,0.809786,22.80502,830.804552
2.14,1.026353,0.809752,22.805403,830.778897
2.15,1.026365,0.809717,22.806015,830.752629
2.16,1.026377,0.809682,22.806859,830.725834
2.17,1.026389,0.809646,22.807933,830.698604
2.18,1.026401,0.809609,22.809235,830.671031
2.19,1.026414,0.809572,22.810765,830.643208
2.2,1.026426,0.809535,22.812519,830.615232
2.21,1.026439,0.809498,22.814494,830.587197
2.22,1.026452,0.809461,22.816686,830.559201
2.23,1.026464,0.809424,22.81909,830.53134
2.24,1.026477,0.809387,22.821701,830.50371
2.25,1.026489,0.809351,22.824514,830.476409
2.26,1.026501,0.809315,22.827521,830.449531
2.27,1.026514,0.80928,22.830715,830.423171
2.28,1.026526,0.809246,22.834089,830.397422
2.29,1.026537,0.809212,22.837634,830.372375
2.3,1.026549,0.809179,22.841341,830.34812
2.31,1.02656,0.809148,22.845202,830.324743
2.32,1.026571,0.809117,22.849207,830.302329
2.33,1.026582,0.809088,22.853345,830.280958
2.34,1.026592,0.809061,22.857606,830.26071
2.35,1.026602,0.809035,22.861979,830.241659
2.36,1.026611,0.80901,22.866452,830.223875
2.37,1.02662,0.808987,22.871015,830.207425
2.38,1.026629,0.808966,22.875656,830.192373
2.39,1.026637,0.808946,22.880363,830.178777
2.4,1.026644,0.808929,22.885123,830.166689
2.41,1.026651,0.808913,22.889925,830.15616
2.42,1.026658,0.808899,22.894756,830.147233
2.43,1.026664,0.808888,22.899603,830.139946
2.44,1.026669,0.808878,22.904456,830.134333
2.45,1.026674,0.808871,22.9093,830.130422
2.46,1.026678,0.808866,22.914124,830.128236
2.47,1.026681,0.808863,22.918916,830.127792
2.48,1.026684,0.808862,22.923663,830.129101
2.49,1.026686,0.808864,22.928354,830.132168
2.5,1.026687,0.808867,22.932978,830.136994
2.51,1.026688,0.808873,22.937522,830.143573
2.52,1.026688,0.808881,22.941976,830.151894
2.53,1.026687,0.808892,22.946328,830.161939
2.54,1.026686,0.808904,22.95057,830.173687
2.55,1.026684,0.808919,22.954689,830.187108
2.56,1.026682,0.808936,22.958678,830.20217
2.57,1.026678,0.808955,22.962526,830.218833
2.58,1.026675,0.808976,22.966225,830.237054
2.59,1.02667,0.808998,22.969767,830.256783
2.6,1.026665,0.809023,22.973144,830.277968
2.61,1.026659,0.80905,22.976348,830.300548
2.62,1.026653,0.809078,22.979374,830.324462
2.63,1.026646,0.809108,22.982214,830.349641
2.64,1.026639,0.80914,22.984864,830.376016
2.65,1.026631,0.809173,22.987319,830.40351
2.66,1.026622,0.809207,22.989574,830.432045
2.67,1.026613,0.809243,22.991626,830.46154
2.68,1.026604,0.80928,22.993472,830.491909
2.69,1.026594,0.809318,22.995109,830.523066
2.7,1.026584,0.809357,22.996535,830.55492
2.71,1.026573,0.809397,22.997749,830.58738
2.72,1.026562,0.809438,22.998752,830.620352
2.73,1.026551,0.809479,22.999542,830.653741
2.74,1.02654,0.809521,23.000122,830.687451
2.75,1.026528,0.809564,23.000491,830.721385
2.76,1.026516,0.809606,23.000652,830.755445
2.77,1.026504,0.809649,23.000607,830.789534
2.78,1.026492,0.809692,23.000361,830.823555
2.79,1.026479,0.809735,22.999915,830.857411
2.8,1.026467,0.809777,22.999276,830.891007
2.81,1.026454,0.809819,22.998446,830.924246
2.82,1.026442,0.809861,22.997432,830.957037
2.83,1.026429,0.809903,22.996239,830.989287
2.84,1.026417,0.809943,22.994874,831.020908
2.85,1.026404,0.809983,22.993343,831.051812
2.86,1.026392,0.810022,22.991653,831.081915
2.87,1.02638,0.81006,22.989812,831.111136
2.88,1.026368,0.810097,22.987827,831.139398
2.89,1.026356,0.810132,22.985706,831.166624
2.9,1.026345,0.810167,22.983459,831.192745
2.91,1.026334,0.8102,22.981092,831.217693
2.92,1.026323,0.810231,22.978617,831.241406
2.93,1.026312,0.810261,22.97604,831.263825
2.94,1.026302,0.81029,22.973372,831.284897
2.95,1.026293,0.810317,22.970622,831.304571
2.96,1.026283,0.810342,22.9678,831.322803
2.97,1.026274,0.810365,22.964915,831.339554
2.98,1.026266,0.810386,22.961976,831.354789
2.99,1.026258,0.810406,22.958993,831.368479
3,1.02625,0.810423,22.955976,831.380599
3.01,1.026244,0.810439,22.952934,831.39113
3.02,1.026237,0.810453,22.949876,831.400058
3.03,1.026231,0.810464,22.946812,831.407375
3.04,1.026226,0.810474,22.94375,831.413078
3.05,1.026221,0.810482,22.9407,831.417169
3.06,1.026217,0.810488,22.937671,831.419654
3.07,1.026213,0.810491,22.934669,831.420546
3.08,1.02621,0.810493,22.931705,831.419863
3.09,1.026208,0.810493,22.928785,831.417627
3.1,1.026206,0.81049,22.925918,831.413864
3.11,1.026204,0.810486,22.923109,831.408607
3.12,1.026204,0.81048,22.920367,831.401892
3.13,1.026203,0.810472,22.917698,831.393761
3.14,1.026204,0.810463,22.915107,831.384257
3.15,1.026205,0.810451,22.9126,831.37343
3.16,1.026206,0.810438,22.910183,831.361333
3.17,1.026208,0.810424,22.907861,831.348022
3.18,1.026211,0.810408,22.905637,831.333558
3.19,1.026214,0.81039,22.903516,831.318003
3.2,1.026217,0.810371,22.901501,831.301422
3.21,1.026221,0.810351,22.899594,831.283886
3.22,1.026226,0.810329,22.8978,831.265463
3.23,1.02623,0.810307,22.896119,831.246228
3.24,1.026236,0.810283,22.894553,831.226256
3.25,1.026241,0.810259,22.893103,831.205621
3.26,1.026247,0.810233,22.89177,831.184403
3.27,1.026254,0.810207,22.890554,831.162679
3.28,1.026261,0.81018,22.889455,831.14053
3.29,1.026268,0.810152,22.888472,831.118033
3.3,1.026275,0.810124,22.887604,831.09527
3.31,1.026282,0.810096,22.88685,831.07232
3.32,1.02629,0.810068,22.886207,831.049262
3.33,1.026298,0.810039,22.885673,831.026174
3.34,1.026306,0.81001,22.885246,831.003134
3.35,1.026315,0.809981,22.884922,830.980218
3.36,1.026323,0.809952,22.884698,830.957501
3.37,1.026332,0.809924,22.88457,830.935055
3.38,1.02634,0.809895,22.884535,830.912952
3.39,1.026349,0.809867,22.884588,830.891259
3.4,1.026357,0.80984,22.884725,830.870045
3.41,1.026366,0.809813,22.88494,830.849371
3.42,1.026375,0.809787,22.88523,830.829299
3.43,1.026383,0.809761,22.885589,830.809886
3.44,1.026392,0.809736,22.886011,830.791187
3.45,1.0264,0.809712,22.886492,830.773254
3.46,1.026408,0.809689,22.887026,830.756133
3.47,1.026416,0.809667,22.887607,830.73987
3.48,1.026424,0.809645,22.88823,830.724503
3.49,1.026432,0.809625,22.888889,830.710071
3.5,1.02644,0.809606,22.889579,830.696605
3.51,1.026447,0.809588,22.890293,830.684134
3.52,1.026454,0.809572,22.891027,830.672684
3.53,1.026461,0.809556,22.891775,830.662274
3.54,1.026467,0.809542,22.892532,830.652921
3.55,1.026474,0.809529,22.893292,830.644638
3.56,1.02648,0.809517,22.89405,830.637434
3.57,1.026485,0.809507,22.894801,830.631313
3.58,1.026491,0.809498,22.89554,830.626275
3.59,1.026496,0.80949,22.896263,830.622318
3.6,1.026501,0.809483,22.896965,830.619434
3.61,1.026505,0.809478,22.897642,830.617612
3.62,1.026509,0.809474,22.89829,830.616838
3.63,1.026513,0.809471,22.898905,830.617095
3.64,1.026516,0.80947,22.899484,830.61836
3.65,1.026519,0.80947,22.900024,830.62061
3.66,1.026522,0.809471,22.900521,830.623816
3.67,1.026524,0.809473,22.900973,830.627948
3.68,1.026527,0.809476,22.901377,830.632973
3.69,1.026528,0.80948,22.901733,830.638854
3.7,1.02653,0.809486,22.902036,830.645554
3.71,1.026531,0.809492,22.902288,830.653032
3.72,1.026532,0.8095,22.902485,830.661245
3.73,1.026532,0.809508,22.902628,830.670148
3.74,1.026532,0.809517,22.902716,830.679697
3.75,1.026532,0.809527,22.902748,830.689843
3.76,1.026532,0.809538,22.902725,830.700539
3.77,1.026531,0.809549,22.902646,830.711734
3.78,1.02653,0.809561,22.902514,830.723377
3.79,1.026529,0.809574,22.902328,830.73542
3.8,1.026528,0.809587,22.90209,830.747809
3.81,1.026526,0.809601,22.901801,830.760494
3.82,1.026524,0.809615,22.901463,830.773424
3.83,1.026522,0.809629,22.901078,830.786548
3.84,1.02652,0.809644,22.900648,830.799815
3.85,1.026518,0.809659,22.900175,830.813175
3.86,1.026515,0.809674,22.899663,830.82658
3.87,1.026512,0.809689,22.899113,830.839982
3.88,1.02651,0.809704,22.898529,830.853334
3.89,1.026507,0.809719,22.897913,830.866591
3.9,1.026504,0.809734,22.89727,830.87971
3.91,1.026501,0.809749,22.896602,830.892647
3.92,1.026497,0.809764,22.895913,830.905364
3.93,1.026494,0.809779,22.895206,830.917822
3.94,1.026491,0.809793,22.894485,830.929985
3.95,1.026488,0.809807,22.893753,830.941819
3.96,1.026484,0.809821,22.893015,830.953292
3.97,1.026481,0.809834,22.892273,830.964376
3.98,1.026478,0.809847,22.891532,830.975043
3.99,1.026475,0.80986,22.890795,830.98527
4,1.026471,0.809872,22.890066,830.995034
4.01,1.026468,0.809883,22.889349,831.004317
4.02,1.026465,0.809894,22.888646,831.013102
4.03,1.026462,0.809905,22.887962,831.021376
4.04,1.026459,0.809915,22.887299,831.029128
4.05,1.026456,0.809924,22.886661,831.036348
4.06,1.026453,0.809933,22.886051,831.043033
4.07,1.02645,0.809941,22.885472,831.049178
4.08,1.026447,0.809949,22.884926,831.054782
4.09,1.026444,0.809956,22.884416,831.059849
4.1,1.026442,0.809963,22.883944,831.064383
4.11,1.026439,0.809968,22.883513,831.06839
4.12,1.026437,0.809974,22.883125,831.071881
4.13,1.026434,0.809978,22.882781,831.074866
4.14,1.026432,0.809983,22.882483,831.077359
4.15,1.02643,0.809986,22.882232,831.079376
4.16,1.026428,0.809989,22.88203,831.080936
4.17,1.026426,0.809992,22.881876,831.082057
4.18,1.026424,0.809994,22.881773,831.082761
4.19,1.026422,0.809996,22.88172,831.083071
4.2,1.026421,0.809997,22.881717,831.083011
4.21,1.026419,0.809998,22.881764,831.082607
4.22,1.026418,0.809999,22.881862,831.081887
4.23,1.026416,0.809999,22.882008,831.080877
4.24,1.026415,0.809999,22.882203,831.079606
4.25,1.026414,0.809998,22.882445,831.078105
4.26,1.026412,0.809998,22.882734,831.076404
4.27,1.026411,0.809997,22.883066,831.074532
4.28,1.02641,0.809996,22.883442,831.072522
4.29,1.026409,0.809994,22.883858,831.070403
4.3,1.026408,0.809993,22.884312,831.068207
4.31,1.026407,0.809992,22.884803,831.065966
4.32,1.026406,0.80999,22.885328,831.063708
4.33,1.026405,0.809989,22.885883,831.061466
4.34,1.026404,0.809988,22.886466,831.059267
4.35,1.026403,0.809986,22.887074,831.057142
4.36,1.026402,0.809985,22.887704,831.055118
4.37,1.026401,0.809984,22.888353,831.053222
4.38,1.0264,0.809983,22.889016,831.05148
4.39,1.026399,0.809983,22.889691,831.049917
4.4,1.026398,0.809982,22.890374,831.048556
4.41,1.026396,0.809982,22.891061,831.047419
4.42,1.026395,0.809982,22.891748,831.046528
4.43,1.026394,0.809982,22.892432,831.0459
4.44,1.026393,0.809983,22.893109,831.045554
4.45,1.026392,0.809984,22.893776,831.045505
4.46,1.02639,0.809985,22.894427,831.045766
4.47,1.026389,0.809987,22.895061,831.04635
