b:tnow in s,s:ut in p.u.,s:cur1 in p.u.,s:Q1 in Mvar,s:P1 in MW
0,1.03,0.097465,88.281415,1000
0.01,1.029993,0.097535,88.418394,1000.707581
0.02,1.029993,0.097538,88.416942,1000.739921
0.03,1.029993,0.097541,88.414546,1000.769248
0.04,1.029993,0.097544,88.410796,1000.797705
0.05,1.029993,0.097547,88.405486,1000.826805
0.06,1.029993,0.09755,88.398528,1000.85754
0.07,1.029993,0.097553,88.389921,1000.890596
0.08,1.029993,0.097556,88.379712,1000.926432
0.09,1.029994,0.09756,88.367975,1000.965349
0.1,1.029994,0.097564,88.354798,1001.007543
0.11,1.029995,0.097568,88.340272,1001.053131
0.12,1.029996,0.097572,88.324492,1001.102172
0.13,1.029996,0.097577,88.307549,1001.154686
0.14,1.029997,0.097582,88.289532,1001.210659
0.15,1.029998,0.097588,88.270524,1001.270053
0.16,1.029999,0.097594,88.250605,1001.332812
0.17,1.03,0.0976,88.229852,1001.398863
0.18,1.030001,0.097606,88.208339,1001.468121
0.19,1.030002,0.097613,88.186134,1001.540493
0.2,1.030003,0.09762,88.163305,1001.615874
0.21,1.030005,0.097627,88.139918,1001.694155
0.22,1.030006,0.097635,88.116036,1001.775218
0.23,1.030007,0.097642,88.091721,1001.858944
0.24,1.030008,0.09765,88.067032,1001.945204
0.25,1.03001,0.097659,88.04203,1002.033868
0.26,1.030011,0.097667,88.016772,1002.124803
0.27,1.030012,0.097676,87.991316,1002.217871
0.28,1.030014,0.097685,87.965718,1002.31293
0.29,1.030015,0.097694,87.940032,1002.409839
0.3,1.030017,0.097703,87.914313,1002.50845
0.31,1.030018,0.097712,87.888615,1002.608615
0.32,1.030019,0.097722,87.862989,1002.710184
0.33,1.030021,0.097731,87.837487,1002.813004
0.34,1.030022,0.097741,87.812158,1002.91692
0.35,1.030024,0.097751,87.78705,1003.021776
0.36,1.030025,0.097761,87.762212,1003.127414
0.37,1.030026,0.097771,87.737688,1003.233674
0.38,1.030028,0.097781,87.713523,1003.340396
0.39,1.030029,0.097791,87.68976,1003.447418
0.4,1.03003,0.097801,87.66644,1003.554576
0.41,1.030032,0.097811,87.643602,1003.661708
0.42,1.030033,0.097821,87.621284,1003.768649
0.43,1.030034,0.097831,87.599523,1003.875234
0.44,1.030035,0.097841,87.578351,1003.981299
0.45,1.030036,0.097851,87.557802,1004.086678
0.46,1.030038,0.09786,87.537905,1004.191208
0.47,1.030039,0.09787,87.518689,1004.294724
0.48,1.03004,0.09788,87.500181,1004.397063
0.49,1.030041,0.097889,87.482405,1004.498062
0.5,1.030042,0.097899,87.465383,1004.597561
0.51,1.030043,0.097908,87.449137,1004.695399
0.52,1.030043,0.097917,87.433684,1004.791418
0.53,1.030044,0.097926,87.419042,1004.885463
0.54,1.030045,0.097935,87.405225,1004.977378
0.55,1.030046,0.097943,87.392247,1005.067014
0.56,1.030046,0.097951,87.380117,1005.154221
0.57,1.030047,0.097959,87.368846,1005.238853
0.58,1.030048,0.097967,87.358441,1005.320768
0.59,1.030048,0.097975,87.348907,1005.399829
0.6,1.030049,0.097982,87.340248,1005.475899
0.61,1.030049,0.097989,87.332466,1005.548847
0.62,1.030049,0.097996,87.325563,1005.618549
0.63,1.03005,0.098002,87.319536,1005.684881
0.64,1.03005,0.098008,87.314383,1005.747728
0.65,1.03005,0.098014,87.3101,1005.806977
0.66,1.03005,0.098019,87.306682,1005.862522
0.67,1.03005,0.098024,87.304122,1005.914264
0.68,1.03005,0.098029,87.302412,1005.962106
0.69,1.03005,0.098033,87.301543,1006.005961
0.7,1.03005,0.098037,87.301503,1006.045747
0.71,1.03005,0.09804,87.302282,1006.081388
0.72,1.03005,0.098043,87.303866,1006.112815
0.73,1.03005,0.098046,87.306243,1006.139966
0.74,1.030049,0.098048,87.309398,1006.162787
0.75,1.030049,0.09805,87.313315,1006.181229
0.76,1.030049,0.098051,87.317978,1006.195253
0.77,1.030048,0.098052,87.323371,1006.204825
0.78,1.030048,0.098053,87.329475,1006.209922
0.79,1.030047,0.098053,87.336274,1006.210525
0.8,1.030046,0.098053,87.343748,1006.206625
0.81,1.030046,0.098052,87.351878,1006.198221
0.82,1.030045,0.098051,87.360646,1006.185319
0.83,1.030044,0.09805,87.37003,1006.167933
0.84,1.030044,0.098048,87.380011,1006.146086
0.85,1.030043,0.098045,87.390568,1006.119808
0.86,1.030042,0.098042,87.401681,1006.089137
0.87,1.030041,0.098039,87.413329,1006.05412
0.88,1.03004,0.098036,87.425491,1006.014811
0.89,1.030039,0.098032,87.438146,1005.971271
0.9,1.030038,0.098027,87.451273,1005.92357
0.91,1.030037,0.098022,87.46485,1005.871786
0.92,1.030036,0.098017,87.478857,1005.816003
0.93,1.030035,0.098012,87.493272,1005.756313
0.94,1.030034,0.098006,87.508075,1005.692814
0.95,1.030033,0.098,87.523244,1005.625613
0.96,1.030032,0.097993,87.538759,1005.554823
0.97,1.030031,0.097986,87.554598,1005.480563
0.98,1.030029,0.097979,87.570742,1005.402958
0.99,1.030028,0.097971,87.58717,1005.32214
1,1.030027,0.097963,87.603861,1005.238246
1.01,1.030026,0.097955,87.620795,1005.151419
1.02,1.030024,0.097947,87.637953,1005.061808
1.03,1.030023,0.097938,87.655314,1004.969564
1.04,1.030022,0.097929,87.672859,1004.874846
1.05,1.03002,0.09792,87.690568,1004.777815
1.06,1.030019,0.097911,87.708422,1004.678638
1.07,1.030017,0.097901,87.726403,1004.577482
1.08,1.030016,0.097892,87.74449,1004.474522
1.09,1.030015,0.097882,87.762665,1004.369932
1.1,1.030013,0.097872,87.78091,1004.263891
1.11,1.030012,0.097862,87.799206,1004.156578
1.12,1.03001,0.097852,87.817534,1004.048175
1.13,1.030009,0.097841,87.835877,1003.938865
1.14,1.030007,0.097831,87.854216,1003.828833
1.15,1.030006,0.097821,87.872534,1003.718264
1.16,1.030004,0.09781,87.890812,1003.607342
1.17,1.030003,0.0978,87.909033,1003.496253
1.18,1.030001,0.097789,87.927179,1003.385181
1.19,1.03,0.097779,87.945234,1003.27431
1.2,1.029998,0.097768,87.963178,1003.163822
1.21,1.029997,0.097758,87.980995,1003.053898
1.22,1.029996,0.097748,87.998669,1002.944717
1.23,1.029994,0.097738,88.016181,1002.836455
1.24,1.029993,0.097728,88.033515,1002.729286
1.25,1.029991,0.097718,88.050654,1002.623381
1.26,1.02999,0.097708,88.067582,1002.518908
1.27,1.029988,0.097698,88.084281,1002.41603
1.28,1.029987,0.097689,88.100735,1002.314909
1.29,1.029985,0.097679,88.116928,1002.215698
1.3,1.029984,0.09767,88.132844,1002.118551
1.31,1.029983,0.097661,88.148467,1002.023612
1.32,1.029981,0.097653,88.16378,1001.931025
1.33,1.02998,0.097644,88.178768,1001.840924
1.34,1.029978,0.097636,88.193415,1001.753442
1.35,1.029977,0.097628,88.207707,1001.668702
1.36,1.029976,0.09762,88.221627,1001.586825
1.37,1.029975,0.097613,88.235162,1001.507923
1.38,1.029973,0.097606,88.248297,1001.432102
1.39,1.029972,0.097599,88.261017,1001.359464
1.4,1.029971,0.097592,88.273308,1001.290102
1.41,1.02997,0.097586,88.285158,1001.224103
1.42,1.029968,0.09758,88.296552,1001.161548
1.43,1.029967,0.097575,88.307478,1001.10251
1.44,1.029966,0.09757,88.317923,1001.047056
1.45,1.029965,0.097565,88.327876,1000.995245
1.46,1.029964,0.09756,88.337324,1000.947129
1.47,1.029963,0.097556,88.346257,1000.902755
1.48,1.029962,0.097553,88.354664,1000.862159
1.49,1.029961,0.097549,88.362534,1000.825374
1.5,1.02996,0.097546,88.369859,1000.792423
1.51,1.029959,0.097544,88.37663,1000.763323
1.52,1.029958,0.097541,88.382837,1000.738085
1.53,1.029957,0.097539,88.388474,1000.71671
1.54,1.029956,0.097538,88.393533,1000.699195
1.55,1.029955,0.097536,88.398008,1000.68553
1.56,1.029955,0.097536,88.401893,1000.675696
1.57,1.029954,0.097535,88.405183,1000.669669
1.58,1.029953,0.097535,88.407875,1000.667419
1.59,1.029952,0.097535,88.409963,1000.668908
1.6,1.029952,0.097536,88.411446,1000.674094
1.61,1.029951,0.097537,88.412322,1000.682925
1.62,1.029951,0.097538,88.41259,1000.695348
1.63,1.02995,0.09754,88.412249,1000.7113
1.64,1.02995,0.097542,88.411299,1000.730716
1.65,1.029949,0.097544,88.409743,1000.753521
1.66,1.029949,0.097546,88.407582,1000.77964
1.67,1.029948,0.097549,88.40482,1000.808989
1.68,1.029948,0.097552,88.401459,1000.841481
1.69,1.029948,0.097556,88.397507,1000.877024
1.7,1.029947,0.097559,88.392967,1000.915521
1.71,1.029947,0.097563,88.387847,1000.956872
1.72,1.029947,0.097568,88.382154,1001.000973
1.73,1.029947,0.097572,88.375897,1001.047714
1.74,1.029947,0.097577,88.369084,1001.096984
1.75,1.029947,0.097582,88.361727,1001.148668
1.76,1.029947,0.097587,88.353835,1001.202648
1.77,1.029946,0.097592,88.345422,1001.258803
1.78,1.029946,0.097598,88.3365,1001.317009
1.79,1.029947,0.097604,88.327082,1001.377141
1.8,1.029947,0.09761,88.317183,1001.439071
1.81,1.029947,0.097616,88.306818,1001.502669
1.82,1.029947,0.097622,88.296004,1001.567805
1.83,1.029947,0.097628,88.284757,1001.634345
1.84,1.029947,0.097635,88.273095,1001.702157
1.85,1.029947,0.097641,88.261036,1001.771106
1.86,1.029948,0.097648,88.2486,1001.841056
1.87,1.029948,0.097654,88.235806,1001.911874
1.88,1.029948,0.097661,88.222675,1001.983422
1.89,1.029949,0.097668,88.209228,1002.055567
1.9,1.029949,0.097675,88.195487,1002.128173
1.91,1.029949,0.097682,88.181474,1002.201105
1.92,1.02995,0.097689,88.167212,1002.27423
1.93,1.02995,0.097696,88.152723,1002.347415
1.94,1.02995,0.097703,88.138033,1002.42053
1.95,1.029951,0.097709,88.123165,1002.493443
1.96,1.029951,0.097716,88.108143,1002.566027
1.97,1.029952,0.097723,88.092993,1002.638155
1.98,1.029952,0.09773,88.077739,1002.709703
1.99,1.029953,0.097737,88.062408,1002.780547
2,1.029953,0.097743,88.047024,1002.850569
2.01,1.029954,0.09775,88.031613,1002.91965
2.02,1.029954,0.097756,88.016202,1002.987677
2.03,1.029955,0.097762,88.000816,1003.054537
2.04,1.029955,0.097768,87.985481,1003.120121
2.05,1.029956,0.097774,87.970222,1003.184325
2.06,1.029956,0.09778,87.955066,1003.247045
2.07,1.029957,0.097786,87.940038,1003.308183
2.08,1.029957,0.097792,87.925162,1003.367643
2.09,1.029958,0.097797,87.910465,1003.425334
2.1,1.029958,0.097802,87.895971,1003.481169
2.11,1.029959,0.097807,87.881705,1003.535064
2.12,1.029959,0.097812,87.867689,1003.586938
2.13,1.02996,0.097817,87.853948,1003.636716
2.14,1.02996,0.097821,87.840504,1003.684327
2.15,1.029961,0.097826,87.82738,1003.729704
2.16,1.029961,0.09783,87.814598,1003.772783
2.17,1.029962,0.097833,87.802178,1003.813506
2.18,1.029962,0.097837,87.790141,1003.85182
2.19,1.029962,0.09784,87.778507,1003.887674
2.2,1.029963,0.097843,87.767294,1003.921024
2.21,1.029963,0.097846,87.756521,1003.95183
2.22,1.029963,0.097849,87.746203,1003.980054
2.23,1.029964,0.097851,87.736359,1004.005668
2.24,1.029964,0.097853,87.727002,1004.028643
2.25,1.029964,0.097855,87.718147,1004.048957
2.26,1.029964,0.097857,87.709807,1004.066594
2.27,1.029965,0.097858,87.701995,1004.08154
2.28,1.029965,0.097859,87.694722,1004.093788
2.29,1.029965,0.09786,87.687997,1004.103333
2.3,1.029965,0.097861,87.68183,1004.110176
2.31,1.029965,0.097861,87.676228,1004.114323
2.32,1.029965,0.097861,87.671199,1004.115783
2.33,1.029965,0.097861,87.666748,1004.114571
2.34,1.029965,0.097861,87.662878,1004.110704
2.35,1.029965,0.09786,87.659595,1004.104204
2.36,1.029965,0.097859,87.656899,1004.0951
2.37,1.029965,0.097858,87.654791,1004.08342
2.38,1.029965,0.097857,87.653272,1004.069201
2.39,1.029964,0.097855,87.65234,1004.05248
2.4,1.029964,0.097853,87.651993,1004.033299
2.41,1.029964,0.097851,87.652226,1004.011706
2.42,1.029964,0.097849,87.653035,1003.987749
2.43,1.029963,0.097846,87.654415,1003.961481
2.44,1.029963,0.097844,87.656357,1003.932958
2.45,1.029963,0.097841,87.658854,1003.90224
2.46,1.029962,0.097838,87.661898,1003.86939
2.47,1.029962,0.097834,87.665477,1003.834473
2.48,1.029961,0.097831,87.669581,1003.797557
2.49,1.029961,0.097827,87.674197,1003.758713
2.5,1.02996,0.097823,87.679313,1003.718015
2.51,1.029959,0.097819,87.684914,1003.675538
2.52,1.029959,0.097815,87.690986,1003.631361
2.53,1.029958,0.097811,87.697513,1003.585563
2.54,1.029958,0.097806,87.704478,1003.538226
2.55,1.029957,0.097802,87.711864,1003.489435
2.56,1.029956,0.097797,87.719654,1003.439274
2.57,1.029955,0.097792,87.727828,1003.38783
2.58,1.029955,0.097787,87.736367,1003.335192
2.59,1.029954,0.097782,87.745252,1003.281448
2.6,1.029953,0.097777,87.754462,1003.226689
2.61,1.029952,0.097772,87.763976,1003.171005
2.62,1.029951,0.097767,87.773773,1003.114488
2.63,1.02995,0.097761,87.783831,1003.05723
2.64,1.029949,0.097756,87.794128,1002.999324
2.65,1.029949,0.09775,87.804641,1002.940861
2.66,1.029948,0.097745,87.815348,1002.881935
2.67,1.029947,0.097739,87.826226,1002.822638
2.68,1.029946,0.097734,87.837251,1002.763061
2.69,1.029945,0.097728,87.848402,1002.703297
2.7,1.029944,0.097722,87.859653,1002.643436
2.71,1.029943,0.097717,87.870983,1002.583569
2.72,1.029942,0.097711,87.882368,1002.523785
2.73,1.029941,0.097706,87.893784,1002.464173
2.74,1.02994,0.0977,87.905209,1002.404819
2.75,1.029939,0.097695,87.91662,1002.34581
2.76,1.029938,0.097689,87.927994,1002.28723
2.77,1.029937,0.097684,87.939308,1002.229162
2.78,1.029936,0.097678,87.950541,1002.171687
2.79,1.029935,0.097673,87.961671,1002.114885
2.8,1.029934,0.097668,87.972677,1002.058834
2.81,1.029933,0.097663,87.983536,1002.003609
2.82,1.029932,0.097658,87.99423,1001.949285
2.83,1.029931,0.097653,88.004738,1001.895932
2.84,1.02993,0.097648,88.01504,1001.843619
2.85,1.029929,0.097643,88.025117,1001.792414
2.86,1.029928,0.097638,88.034952,1001.74238
2.87,1.029927,0.097634,88.044526,1001.693581
2.88,1.029926,0.097629,88.053823,1001.646074
2.89,1.029925,0.097625,88.062826,1001.599917
2.9,1.029924,0.097621,88.071519,1001.555164
2.91,1.029923,0.097617,88.079887,1001.511866
2.92,1.029922,0.097613,88.087917,1001.470071
2.93,1.029922,0.097609,88.095595,1001.429824
2.94,1.029921,0.097606,88.102908,1001.39117
2.95,1.02992,0.097602,88.109844,1001.354147
2.96,1.029919,0.097599,88.116393,1001.318792
2.97,1.029918,0.097596,88.122544,1001.28514
2.98,1.029918,0.097593,88.128289,1001.25322
2.99,1.029917,0.09759,88.133617,1001.223062
3,1.029916,0.097587,88.138523,1001.194689
3.01,1.029916,0.097585,88.142999,1001.168125
3.02,1.029915,0.097582,88.14704,1001.143387
3.03,1.029914,0.09758,88.150639,1001.120492
3.04,1.029914,0.097578,88.153794,1001.099454
3.05,1.029913,0.097577,88.156501,1001.080281
3.06,1.029913,0.097575,88.158757,1001.062981
3.07,1.029912,0.097574,88.160562,1001.047558
3.08,1.029912,0.097572,88.161913,1001.034014
3.09,1.029911,0.097571,88.162812,1001.022346
3.1,1.029911,0.09757,88.16326,1001.012552
3.11,1.02991,0.09757,88.163257,1001.004623
3.12,1.02991,0.097569,88.162807,1000.998549
3.13,1.02991,0.097569,88.161913,1000.994319
3.14,1.029909,0.097568,88.16058,1000.991917
3.15,1.029909,0.097568,88.158811,1000.991325
3.16,1.029909,0.097569,88.156613,1000.992524
3.17,1.029908,0.097569,88.153991,1000.99549
3.18,1.029908,0.097569,88.150954,1001.000198
3.19,1.029908,0.09757,88.147509,1001.006621
3.2,1.029908,0.097571,88.143663,1001.014729
3.21,1.029908,0.097572,88.139426,1001.02449
3.22,1.029908,0.097573,88.134808,1001.035871
3.23,1.029907,0.097574,88.129818,1001.048835
3.24,1.029907,0.097575,88.124468,1001.063344
3.25,1.029907,0.097577,88.118768,1001.079358
3.26,1.029907,0.097578,88.11273,1001.096836
3.27,1.029907,0.09758,88.106367,1001.115733
3.28,1.029907,0.097582,88.099691,1001.136005
3.29,1.029907,0.097584,88.092714,1001.157604
3.3,1.029908,0.097586,88.085451,1001.180483
3.31,1.029908,0.097588,88.077915,1001.204592
3.32,1.029908,0.097591,88.070121,1001.229879
3.33,1.029908,0.097593,88.062081,1001.256291
3.34,1.029908,0.097596,88.053812,1001.283777
3.35,1.029908,0.097599,88.045328,1001.31228
3.36,1.029908,0.097601,88.036644,1001.341745
3.37,1.029908,0.097604,88.027776,1001.372116
3.38,1.029909,0.097607,88.018738,1001.403334
3.39,1.029909,0.09761,88.009546,1001.435343
3.4,1.029909,0.097613,88.000216,1001.468081
3.41,1.029909,0.097616,87.990764,1001.501492
3.42,1.02991,0.097619,87.981205,1001.535513
3.43,1.02991,0.097623,87.971555,1001.570085
3.44,1.02991,0.097626,87.961829,1001.605146
3.45,1.02991,0.097629,87.952044,1001.640636
3.46,1.029911,0.097633,87.942214,1001.676494
3.47,1.029911,0.097636,87.932356,1001.712657
3.48,1.029911,0.097639,87.922484,1001.749065
3.49,1.029912,0.097643,87.912614,1001.785655
3.5,1.029912,0.097646,87.90276,1001.822367
3.51,1.029912,0.09765,87.892938,1001.85914
3.52,1.029913,0.097653,87.883162,1001.895912
3.53,1.029913,0.097657,87.873447,1001.932623
3.54,1.029913,0.09766,87.863806,1001.969214
3.55,1.029913,0.097664,87.854253,1002.005624
3.56,1.029914,0.097667,87.844802,1002.041794
3.57,1.029914,0.09767,87.835466,1002.077666
3.58,1.029914,0.097674,87.826257,1002.113183
3.59,1.029915,0.097677,87.817189,1002.148287
3.6,1.029915,0.09768,87.808272,1002.182923
3.61,1.029915,0.097683,87.799519,1002.217035
3.62,1.029916,0.097686,87.790942,1002.25057
3.63,1.029916,0.09769,87.78255,1002.283473
3.64,1.029916,0.097693,87.774354,1002.315693
3.65,1.029916,0.097696,87.766365,1002.34718
3.66,1.029917,0.097698,87.758591,1002.377883
3.67,1.029917,0.097701,87.751042,1002.407755
3.68,1.029917,0.097704,87.743726,1002.436748
3.69,1.029917,0.097707,87.736651,1002.464817
3.7,1.029917,0.097709,87.729826,1002.491917
3.71,1.029918,0.097712,87.723256,1002.518006
3.72,1.029918,0.097714,87.716949,1002.543043
3.73,1.029918,0.097716,87.71091,1002.566988
3.74,1.029918,0.097718,87.705146,1002.589804
3.75,1.029918,0.09772,87.699661,1002.611455
3.76,1.029918,0.097722,87.694459,1002.631905
3.77,1.029918,0.097724,87.689546,1002.651124
3.78,1.029918,0.097726,87.684924,1002.669079
3.79,1.029919,0.097727,87.680596,1002.685743
3.8,1.029919,0.097729,87.676566,1002.701088
3.81,1.029919,0.09773,87.672834,1002.715089
3.82,1.029919,0.097731,87.669403,1002.727723
3.83,1.029919,0.097732,87.666273,1002.73897
3.84,1.029919,0.097733,87.663446,1002.748811
3.85,1.029919,0.097734,87.66092,1002.757229
3.86,1.029919,0.097735,87.658697,1002.764208
3.87,1.029918,0.097735,87.656775,1002.769737
3.88,1.029918,0.097736,87.655152,1002.773806
3.89,1.029918,0.097736,87.653828,1002.776405
3.9,1.029918,0.097736,87.652799,1002.777529
3.91,1.029918,0.097736,87.652064,1002.777175
3.92,1.029918,0.097736,87.651619,1002.775339
3.93,1.029918,0.097736,87.651461,1002.772024
3.94,1.029918,0.097735,87.651586,1002.767231
3.95,1.029917,0.097734,87.65199,1002.760966
3.96,1.029917,0.097734,87.652668,1002.753237
3.97,1.029917,0.097733,87.653617,1002.744052
3.98,1.029917,0.097732,87.654829,1002.733423
3.99,1.029916,0.097731,87.656301,1002.721364
4,1.029916,0.09773,87.658026,1002.707891
4.01,1.029916,0.097728,87.659998,1002.693023
4.02,1.029916,0.097727,87.66221,1002.676779
4.03,1.029915,0.097725,87.664657,1002.659183
4.04,1.029915,0.097723,87.667331,1002.640259
4.05,1.029915,0.097721,87.670224,1002.620033
4.06,1.029914,0.097719,87.673331,1002.598534
4.07,1.029914,0.097717,87.676642,1002.575794
4.08,1.029913,0.097715,87.680151,1002.551844
4.09,1.029913,0.097713,87.683849,1002.52672
4.1,1.029913,0.09771,87.687728,1002.500457
4.11,1.029912,0.097707,87.69178,1002.473095
4.12,1.029912,0.097705,87.695997,1002.444672
4.13,1.029911,0.097702,87.70037,1002.415231
4.14,1.029911,0.097699,87.70489,1002.384816
4.15,1.02991,0.097696,87.70955,1002.35347
4.16,1.02991,0.097693,87.714339,1002.321241
4.17,1.029909,0.09769,87.719249,1002.288176
4.18,1.029909,0.097687,87.724271,1002.254325
4.19,1.029908,0.097684,87.729396,1002.219738
4.2,1.029908,0.09768,87.734615,1002.184466
4.21,1.029907,0.097677,87.739919,1002.148564
4.22,1.029907,0.097674,87.745299,1002.112084
4.23,1.029906,0.09767,87.750746,1002.075082
4.24,1.029906,0.097667,87.756251,1002.037612
4.25,1.029905,0.097663,87.761804,1001.999732
4.26,1.029905,0.097659,87.767397,1001.961499
4.27,1.029904,0.097656,87.773021,1001.92297
4.28,1.029904,0.097652,87.778666,1001.884204
4.29,1.029903,0.097648,87.784325,1001.845259
4.3,1.029903,0.097645,87.789987,1001.806194
4.31,1.029902,0.097641,87.795645,1001.767067
4.32,1.029902,0.097637,87.80129,1001.727938
4.33,1.029901,0.097634,87.806913,1001.688866
4.34,1.0299,0.09763,87.812506,1001.64991
4.35,1.0299,0.097626,87.818061,1001.611128
4.36,1.029899,0.097623,87.823569,1001.572579
4.37,1.029899,0.097619,87.829022,1001.53432
4.38,1.029898,0.097616,87.834413,1001.496408
