b:tnow in s,s:ut in p.u.,s:cur1 in p.u.,s:Q1 in Mvar,s:P1 in MW
0,0.982,0.81069,198.251784,520.811072
0.01,0.981935,0.811011,198.313711,520.983918
0.02,0.981933,0.811012,198.311465,520.984394
0.03,0.981932,0.811013,198.308524,520.985351
0.04,0.98193,0.811014,198.305205,520.98681
0.05,0.981929,0.811016,198.301701,520.988797
0.06,0.981929,0.811018,198.298112,520.991329
0.07,0.981929,0.81102,198.294494,520.994415
0.08,0.981929,0.811023,198.290868,520.998058
0.09,0.981929,0.811027,198.287245,521.002245
0.1,0.98193,0.811031,198.283623,521.006961
0.11,0.981931,0.811035,198.279997,521.012179
0.12,0.981932,0.81104,198.276362,521.017871
0.13,0.981933,0.811046,198.27271,521.024001
0.14,0.981935,0.811051,198.269034,521.030533
0.15,0.981936,0.811057,198.26533,521.037424
0.16,0.981938,0.811064,198.261593,521.044634
0.17,0.98194,0.81107,198.257819,521.052118
0.18,0.981942,0.811077,198.254006,521.059832
0.19,0.981944,0.811084,198.250154,521.067729
0.2,0.981946,0.811091,198.246262,521.075763
0.21,0.981949,0.811098,198.242331,521.083889
0.22,0.981951,0.811106,198.238362,521.09206
0.23,0.981953,0.811113,198.234358,521.10023
0.24,0.981956,0.81112,198.230322,521.108353
0.25,0.981958,0.811126,198.226257,521.116384
0.26,0.981961,0.811133,198.222169,521.124279
0.27,0.981964,0.811139,198.218061,521.131994
0.28,0.981966,0.811145,198.21394,521.139485
0.29,0.981969,0.81115,198.209809,521.146713
0.3,0.981972,0.811155,198.205677,521.153636
0.31,0.981974,0.81116,198.201547,521.160215
0.32,0.981977,0.811164,198.197428,521.166413
0.33,0.98198,0.811167,198.193325,521.172194
0.34,0.981983,0.81117,198.189245,521.177525
0.35,0.981985,0.811173,198.185195,521.182372
0.36,0.981988,0.811174,198.181181,521.186705
0.37,0.981991,0.811175,198.177211,521.190497
0.38,0.981994,0.811175,198.173292,521.193721
0.39,0.981996,0.811174,198.169429,521.196353
0.4,0.981999,0.811173,198.165631,521.198372
0.41,0.982002,0.81117,198.161903,521.199758
0.42,0.982005,0.811167,198.158252,521.200495
0.43,0.982008,0.811163,198.154685,521.200569
0.44,0.98201,0.811158,198.151207,521.199968
0.45,0.982013,0.811152,198.147826,521.198684
0.46,0.982016,0.811146,198.144546,521.196709
0.47,0.982018,0.811138,198.141373,521.194041
0.48,0.982021,0.81113,198.138314,521.190678
0.49,0.982024,0.811121,198.135372,521.186623
0.5,0.982026,0.811111,198.132553,521.18188
0.51,0.982029,0.8111,198.129862,521.176457
0.52,0.982031,0.811088,198.127303,521.170363
0.53,0.982034,0.811076,198.124881,521.163611
0.54,0.982036,0.811063,198.122598,521.156217
0.55,0.982038,0.811049,198.120459,521.148198
0.56,0.982041,0.811034,198.118467,521.139576
0.57,0.982043,0.811019,198.116625,521.130372
0.58,0.982045,0.811003,198.114934,521.120612
0.59,0.982047,0.810986,198.113398,521.110325
0.6,0.982049,0.810969,198.112019,521.099539
0.61,0.982051,0.810952,198.110797,521.088287
0.62,0.982053,0.810934,198.109734,521.076603
0.63,0.982055,0.810915,198.108831,521.064522
0.64,0.982057,0.810897,198.108089,521.052084
0.65,0.982058,0.810878,198.107507,521.039326
0.66,0.98206,0.810858,198.107086,521.02629
0.67,0.982061,0.810839,198.106824,521.013019
0.68,0.982063,0.810819,198.106722,520.999555
0.69,0.982064,0.8108,198.106778,520.985943
0.7,0.982065,0.81078,198.10699,520.97223
0.71,0.982066,0.810761,198.107356,520.958461
0.72,0.982067,0.810742,198.107875,520.944683
0.73,0.982068,0.810723,198.108544,520.930944
0.74,0.982069,0.810704,198.10936,520.917291
0.75,0.98207,0.810685,198.11032,520.903773
0.76,0.98207,0.810667,198.111421,520.890436
0.77,0.982071,0.81065,198.11266,520.877329
0.78,0.982071,0.810633,198.114032,520.864498
0.79,0.982071,0.810616,198.115533,520.851991
0.8,0.982071,0.810601,198.117159,520.839852
0.81,0.982071,0.810586,198.118906,520.828127
0.82,0.982071,0.810571,198.120768,520.81686
0.83,0.982071,0.810558,198.12274,520.806093
0.84,0.98207,0.810546,198.124818,520.795868
0.85,0.98207,0.810534,198.126997,520.786223
0.86,0.982069,0.810524,198.129269,520.777198
0.87,0.982068,0.810514,198.13163,520.768827
0.88,0.982067,0.810506,198.134075,520.761146
0.89,0.982066,0.810499,198.136596,520.754186
0.9,0.982065,0.810493,198.139188,520.747977
0.91,0.982063,0.810488,198.141845,520.742547
0.92,0.982062,0.810484,198.14456,520.73792
0.93,0.98206,0.810482,198.147328,520.734119
0.94,0.982058,0.810481,198.150142,520.731164
0.95,0.982056,0.810481,198.152995,520.729071
0.96,0.982054,0.810483,198.155881,520.727855
0.97,0.982051,0.810486,198.158794,520.727528
0.98,0.982049,0.81049,198.161728,520.728097
0.99,0.982046,0.810496,198.164675,520.729569
1,0.982043,0.810503,198.16763,520.731945
1.01,0.982041,0.810511,198.170586,520.735225
1.02,0.982038,0.810521,198.173537,520.739406
1.03,0.982034,0.810532,198.176476,520.74448
1.04,0.982031,0.810545,198.179399,520.750439
1.05,0.982027,0.810558,198.182298,520.757268
1.06,0.982024,0.810573,198.185168,520.764954
1.07,0.98202,0.810589,198.188003,520.773476
1.08,0.982016,0.810607,198.190797,520.782814
1.09,0.982012,0.810625,198.193545,520.792944
1.1,0.982008,0.810645,198.196242,520.803837
1.11,0.982004,0.810665,198.198883,520.815465
1.12,0.982,0.810687,198.201461,520.827795
1.13,0.981995,0.81071,198.203974,520.840793
1.14,0.981991,0.810733,198.206415,520.85442
1.15,0.981986,0.810758,198.208782,520.868639
1.16,0.981981,0.810783,198.211068,520.883408
1.17,0.981976,0.810809,198.213271,520.898682
1.18,0.981971,0.810835,198.215387,520.914417
1.19,0.981966,0.810862,198.217413,520.930567
1.2,0.981961,0.81089,198.219344,520.947082
1.21,0.981956,0.810918,198.221178,520.963914
1.22,0.981951,0.810946,198.222912,520.98101
1.23,0.981946,0.810975,198.224544,520.99832
1.24,0.981941,0.811004,198.226072,521.015791
1.25,0.981936,0.811033,198.227493,521.033369
1.26,0.98193,0.811062,198.228806,521.051001
1.27,0.981925,0.811091,198.230009,521.068633
1.28,0.98192,0.81112,198.231101,521.08621
1.29,0.981915,0.811148,198.232081,521.10368
1.3,0.981909,0.811176,198.232949,521.120987
1.31,0.981904,0.811204,198.233704,521.13808
1.32,0.981899,0.811232,198.234345,521.154905
1.33,0.981894,0.811259,198.234874,521.171412
1.34,0.981889,0.811285,198.235291,521.187549
1.35,0.981884,0.811311,198.235596,521.203268
1.36,0.981879,0.811336,198.235789,521.21852
1.37,0.981874,0.81136,198.235874,521.233259
1.38,0.981869,0.811383,198.235849,521.247442
1.39,0.981865,0.811405,198.235718,521.261024
1.4,0.98186,0.811426,198.235483,521.273965
1.41,0.981856,0.811447,198.235144,521.286228
1.42,0.981852,0.811466,198.234705,521.297775
1.43,0.981847,0.811483,198.234169,521.308573
1.44,0.981843,0.8115,198.233537,521.318592
1.45,0.981839,0.811515,198.232812,521.327801
1.46,0.981836,0.811529,198.231999,521.336176
1.47,0.981832,0.811542,198.231099,521.343694
1.48,0.981829,0.811554,198.230116,521.350334
1.49,0.981826,0.811563,198.229055,521.35608
1.5,0.981822,0.811572,198.227918,521.360918
1.51,0.98182,0.811579,198.226709,521.364837
1.52,0.981817,0.811585,198.225432,521.367828
1.53,0.981814,0.811589,198.224092,521.369888
1.54,0.981812,0.811592,198.222691,521.371014
1.55,0.98181,0.811593,198.221235,521.371209
1.56,0.981808,0.811593,198.219727,521.370477
1.57,0.981806,0.811591,198.218171,521.368825
1.58,0.981805,0.811588,198.216573,521.366266
1.59,0.981804,0.811583,198.214936,521.362812
1.6,0.981802,0.811578,198.213263,521.35848
1.61,0.981802,0.81157,198.211561,521.35329
1.62,0.981801,0.811562,198.209832,521.347265
1.63,0.981801,0.811552,198.208081,521.34043
1.64,0.9818,0.811541,198.206312,521.332812
1.65,0.9818,0.811529,198.20453,521.324442
1.66,0.9818,0.811515,198.202737,521.315352
1.67,0.981801,0.811501,198.200939,521.305578
1.68,0.981801,0.811485,198.199139,521.295156
1.69,0.981802,0.811469,198.19734,521.284125
1.7,0.981803,0.811451,198.195547,521.272526
1.71,0.981804,0.811433,198.193763,521.260402
1.72,0.981806,0.811414,198.191991,521.247795
1.73,0.981807,0.811394,198.190235,521.234753
1.74,0.981809,0.811373,198.188498,521.22132
1.75,0.981811,0.811352,198.186782,521.207545
1.76,0.981813,0.81133,198.185091,521.193476
1.77,0.981815,0.811308,198.183427,521.179161
1.78,0.981817,0.811286,198.181794,521.16465
1.79,0.98182,0.811263,198.180192,521.149993
1.8,0.981822,0.81124,198.178626,521.135239
1.81,0.981825,0.811217,198.177095,521.120437
1.82,0.981828,0.811193,198.175604,521.105638
1.83,0.981831,0.81117,198.174153,521.090889
1.84,0.981834,0.811147,198.172743,521.07624
1.85,0.981837,0.811124,198.171377,521.061738
1.86,0.98184,0.811101,198.170056,521.047429
1.87,0.981844,0.811078,198.168781,521.033358
1.88,0.981847,0.811056,198.167552,521.019571
1.89,0.98185,0.811034,198.16637,521.006109
1.9,0.981854,0.811013,198.165237,520.993014
1.91,0.981858,0.810992,198.164152,520.980325
1.92,0.981861,0.810972,198.163117,520.96808
1.93,0.981865,0.810953,198.16213,520.956314
1.94,0.981868,0.810934,198.161193,520.945062
1.95,0.981872,0.810916,198.160306,520.934355
1.96,0.981876,0.810899,198.159467,520.924221
1.97,0.981879,0.810882,198.158678,520.914687
1.98,0.981883,0.810867,198.157937,520.905779
1.99,0.981887,0.810852,198.157244,520.897517
2,0.98189,0.810838,198.156598,520.889922
2.01,0.981894,0.810826,198.156,520.883009
2.02,0.981897,0.810814,198.155447,520.876794
2.03,0.981901,0.810804,198.15494,520.871287
2.04,0.981904,0.810794,198.154478,520.866497
2.05,0.981908,0.810786,198.154059,520.86243
2.06,0.981911,0.810778,198.153683,520.85909
2.07,0.981914,0.810772,198.153349,520.856478
2.08,0.981917,0.810766,198.153055,520.854591
2.09,0.98192,0.810762,198.152801,520.853425
2.1,0.981923,0.810759,198.152586,520.852973
2.11,0.981926,0.810757,198.152408,520.853226
2.12,0.981929,0.810756,198.152267,520.854171
2.13,0.981931,0.810756,198.152161,520.855795
2.14,0.981934,0.810757,198.152089,520.858081
2.15,0.981936,0.810759,198.152051,520.861009
2.16,0.981938,0.810762,198.152046,520.86456
2.17,0.98194,0.810766,198.152071,520.86871
2.18,0.981942,0.810771,198.152127,520.873435
2.19,0.981944,0.810776,198.152213,520.878708
2.2,0.981946,0.810783,198.152327,520.884502
2.21,0.981948,0.81079,198.152469,520.890787
2.22,0.981949,0.810798,198.152637,520.897532
2.23,0.981951,0.810807,198.152833,520.904705
2.24,0.981952,0.810816,198.153054,520.912273
2.25,0.981953,0.810826,198.1533,520.920201
2.26,0.981954,0.810837,198.15357,520.928456
2.27,0.981955,0.810848,198.153865,520.937001
2.28,0.981956,0.810859,198.154183,520.9458
2.29,0.981956,0.810871,198.154524,520.954818
2.3,0.981957,0.810884,198.154889,520.964017
2.31,0.981957,0.810896,198.155276,520.973362
2.32,0.981957,0.810909,198.155686,520.982815
2.33,0.981957,0.810922,198.156118,520.992341
2.34,0.981957,0.810935,198.156572,521.001903
2.35,0.981957,0.810949,198.15705,521.011466
2.36,0.981957,0.810962,198.157549,521.020997
2.37,0.981957,0.810975,198.158071,521.03046
2.38,0.981956,0.810989,198.158616,521.039823
2.39,0.981956,0.811002,198.159184,521.049055
2.4,0.981955,0.811015,198.159775,521.058123
2.41,0.981955,0.811028,198.16039,521.067
2.42,0.981954,0.811041,198.161028,521.075657
2.43,0.981953,0.811053,198.161691,521.084066
2.44,0.981952,0.811066,198.162377,521.092204
2.45,0.981951,0.811078,198.163089,521.100046
2.46,0.98195,0.811089,198.163826,521.107571
2.47,0.981949,0.8111,198.164588,521.114759
2.48,0.981947,0.811111,198.165376,521.121591
2.49,0.981946,0.811121,198.166191,521.128052
2.5,0.981945,0.811131,198.167032,521.134126
2.51,0.981943,0.81114,198.1679,521.139801
2.52,0.981942,0.811149,198.168795,521.145068
2.53,0.98194,0.811157,198.169718,521.149916
2.54,0.981939,0.811165,198.170668,521.15434
2.55,0.981937,0.811172,198.171646,521.158335
2.56,0.981936,0.811179,198.172651,521.161898
2.57,0.981934,0.811185,198.173685,521.165028
2.58,0.981932,0.811191,198.174747,521.167728
2.59,0.981931,0.811196,198.175837,521.169999
2.6,0.981929,0.8112,198.176954,521.171847
2.61,0.981927,0.811204,198.178099,521.173278
2.62,0.981926,0.811208,198.179271,521.174302
2.63,0.981924,0.811211,198.180469,521.174927
2.64,0.981922,0.811213,198.181695,521.175167
2.65,0.981921,0.811215,198.182945,521.175033
2.66,0.981919,0.811216,198.184221,521.174542
2.67,0.981917,0.811217,198.185521,521.173708
2.68,0.981915,0.811218,198.186845,521.172549
2.69,0.981914,0.811218,198.188191,521.171084
2.7,0.981912,0.811218,198.189559,521.169332
2.71,0.98191,0.811217,198.190947,521.167314
2.72,0.981909,0.811216,198.192353,521.165052
2.73,0.981907,0.811215,198.193778,521.162566
2.74,0.981905,0.811213,198.195219,521.159881
2.75,0.981904,0.811211,198.196674,521.157018
2.76,0.981902,0.811209,198.198142,521.154003
2.77,0.981901,0.811207,198.199622,521.15086
2.78,0.981899,0.811205,198.201111,521.147611
2.79,0.981898,0.811202,198.202608,521.144282
2.8,0.981896,0.811199,198.20411,521.140898
2.81,0.981895,0.811197,198.205616,521.137481
2.82,0.981893,0.811194,198.207123,521.134056
2.83,0.981892,0.811191,198.20863,521.130647
2.84,0.981891,0.811189,198.210133,521.127276
2.85,0.981889,0.811186,198.211631,521.123966
2.86,0.981888,0.811183,198.213121,521.120739
2.87,0.981887,0.811181,198.214601,521.117616
2.88,0.981886,0.811179,198.216069,521.114617
2.89,0.981884,0.811177,198.217522,521.111761
2.9,0.981883,0.811175,198.218957,521.109067
2.91,0.981882,0.811173,198.220372,521.106552
2.92,0.981881,0.811171,198.221765,521.104232
2.93,0.98188,0.81117,198.223133,521.102122
2.94,0.981879,0.811169,198.224474,521.100236
2.95,0.981878,0.811168,198.225785,521.098586
2.96,0.981877,0.811168,198.227065,521.097182
2.97,0.981876,0.811168,198.228309,521.096035
2.98,0.981875,0.811168,198.229517,521.095152
2.99,0.981874,0.811168,198.230686,521.09454
3,0.981874,0.811169,198.231814,521.094205
3.01,0.981873,0.81117,198.232898,521.09415
3.02,0.981872,0.811172,198.233937,521.094377
3.03,0.981871,0.811173,198.234929,521.094887
3.04,0.981871,0.811175,198.235872,521.09568
3.05,0.98187,0.811178,198.236763,521.096753
3.06,0.98187,0.811181,198.237603,521.098103
3.07,0.981869,0.811184,198.238388,521.099724
3.08,0.981869,0.811187,198.239119,521.101611
3.09,0.981868,0.811191,198.239792,521.103756
3.1,0.981868,0.811194,198.240408,521.106149
3.11,0.981868,0.811199,198.240965,521.10878
3.12,0.981867,0.811203,198.241463,521.111639
3.13,0.981867,0.811208,198.241901,521.114711
3.14,0.981867,0.811212,198.242277,521.117985
3.15,0.981867,0.811217,198.242593,521.121445
3.16,0.981867,0.811223,198.242848,521.125076
3.17,0.981866,0.811228,198.243041,521.128861
3.18,0.981866,0.811233,198.243173,521.132784
3.19,0.981867,0.811239,198.243244,521.136826
3.2,0.981867,0.811244,198.243255,521.140969
3.21,0.981867,0.81125,198.243206,521.145195
3.22,0.981867,0.811256,198.243098,521.149484
3.23,0.981867,0.811261,198.242932,521.153816
3.24,0.981868,0.811267,198.242709,521.158171
3.25,0.981868,0.811272,198.24243,521.16253
3.26,0.981868,0.811278,198.242097,521.166873
3.27,0.981869,0.811283,198.241711,521.171179
3.28,0.981869,0.811288,198.241275,521.175428
3.29,0.98187,0.811293,198.240789,521.179601
3.3,0.98187,0.811298,198.240257,521.183678
3.31,0.981871,0.811302,198.23968,521.187641
3.32,0.981872,0.811306,198.23906,521.191471
3.33,0.981873,0.81131,198.238401,521.195149
3.34,0.981874,0.811314,198.237704,521.198659
3.35,0.981875,0.811317,198.236972,521.201983
3.36,0.981876,0.811321,198.236208,521.205107
3.37,0.981877,0.811323,198.235415,521.208014
3.38,0.981878,0.811326,198.234596,521.21069
3.39,0.981879,0.811327,198.233753,521.213123
3.4,0.98188,0.811329,198.232891,521.215301
3.41,0.981881,0.81133,198.232012,521.217211
3.42,0.981883,0.811331,198.23112,521.218845
3.43,0.981884,0.811331,198.230217,521.220193
3.44,0.981885,0.811331,198.229307,521.221248
3.45,0.981887,0.81133,198.228393,521.222003
3.46,0.981888,0.811329,198.227479,521.222453
3.47,0.98189,0.811327,198.226569,521.222595
3.48,0.981891,0.811325,198.225664,521.222425
3.49,0.981893,0.811323,198.22477,521.221943
3.5,0.981895,0.81132,198.223889,521.221148
3.51,0.981896,0.811317,198.223024,521.220042
3.52,0.981898,0.811313,198.222178,521.218627
3.53,0.9819,0.811309,198.221356,521.216907
3.54,0.981902,0.811304,198.22056,521.214888
3.55,0.981904,0.811299,198.219792,521.212575
3.56,0.981906,0.811293,198.219057,521.209977
3.57,0.981907,0.811288,198.218357,521.207101
3.58,0.981909,0.811281,198.217694,521.203958
3.59,0.981911,0.811275,198.217072,521.200559
3.6,0.981913,0.811268,198.216493,521.196915
3.61,0.981915,0.811261,198.215959,521.193041
3.62,0.981917,0.811253,198.215473,521.188949
3.63,0.981919,0.811246,198.215037,521.184655
3.64,0.981921,0.811238,198.214653,521.180174
3.65,0.981923,0.81123,198.214323,521.175523
3.66,0.981925,0.811221,198.214049,521.170718
3.67,0.981927,0.811213,198.213832,521.165779
3.68,0.981929,0.811204,198.213674,521.160722
3.69,0.981931,0.811196,198.213576,521.155566
3.7,0.981933,0.811187,198.213539,521.150332
3.71,0.981935,0.811178,198.213565,521.145038
3.72,0.981937,0.811169,198.213653,521.139705
3.73,0.981939,0.811161,198.213805,521.134351
3.74,0.981941,0.811152,198.214021,521.128998
3.75,0.981942,0.811143,198.214301,521.123665
3.76,0.981944,0.811135,198.214645,521.118372
3.77,0.981946,0.811126,198.215054,521.113139
3.78,0.981947,0.811118,198.215527,521.107986
3.79,0.981949,0.81111,198.216064,521.102932
3.8,0.981951,0.811103,198.216664,521.097997
3.81,0.981952,0.811095,198.217326,521.093198
3.82,0.981954,0.811088,198.218049,521.088554
3.83,0.981955,0.811081,198.218834,521.084083
3.84,0.981956,0.811075,198.219677,521.0798
3.85,0.981958,0.811069,198.220578,521.075723
3.86,0.981959,0.811063,198.221536,521.071867
3.87,0.98196,0.811058,198.222549,521.068246
3.88,0.981961,0.811053,198.223615,521.064874
3.89,0.981962,0.811048,198.224732,521.061764
3.9,0.981963,0.811044,198.225898,521.058928
3.91,0.981964,0.811041,198.227112,521.056377
3.92,0.981965,0.811038,198.22837,521.054121
3.93,0.981965,0.811035,198.229672,521.052167
3.94,0.981966,0.811033,198.231014,521.050525
3.95,0.981966,0.811031,198.232394,521.049201
3.96,0.981967,0.81103,198.23381,521.0482
3.97,0.981967,0.81103,198.235258,521.047526
3.98,0.981968,0.81103,198.236737,521.047183
3.99,0.981968,0.811031,198.238244,521.047173
4,0.981968,0.811032,198.239775,521.047496
4.01,0.981968,0.811033,198.24133,521.048152
4.02,0.981968,0.811035,198.242903,521.04914
4.03,0.981968,0.811038,198.244494,521.050457
4.04,0.981968,0.811041,198.246099,521.052099
4.05,0.981967,0.811045,198.247715,521.054062
4.06,0.981967,0.811049,198.24934,521.05634
4.07,0.981967,0.811054,198.250971,521.058925
4.08,0.981966,0.811059,198.252606,521.061809
4.09,0.981966,0.811065,198.254241,521.064985
4.1,0.981965,0.811071,198.255875,521.068441
4.11,0.981964,0.811077,198.257504,521.072167
4.12,0.981964,0.811084,198.259127,521.076151
4.13,0.981963,0.811091,198.26074,521.080381
4.14,0.981962,0.811099,198.262342,521.084844
4.15,0.981961,0.811107,198.26393,521.089526
4.16,0.98196,0.811115,198.265502,521.094411
4.17,0.981959,0.811124,198.267056,521.099486
4.18,0.981958,0.811133,198.268591,521.104734
4.19,0.981957,0.811142,198.270103,521.11014
4.2,0.981956,0.811151,198.271592,521.115686
4.21,0.981954,0.811161,198.273056,521.121356
4.22,0.981953,0.81117,198.274492,521.127132
4.23,0.981952,0.81118,198.275901,521.132998
4.24,0.98195,0.81119,198.277279,521.138936
4.25,0.981949,0.8112,198.278627,521.144927
4.26,0.981948,0.81121,198.279943,521.150955
4.27,0.981946,0.81122,198.281225,521.157002
4.28,0.981945,0.81123,198.282473,521.16305
4.29,0.981943,0.81124,198.283687,521.169082
4.3,0.981942,0.81125,198.284865,521.175081
4.31,0.981941,0.81126,198.286007,521.18103
4.32,0.981939,0.81127,198.287112,521.186912
4.33,0.981938,0.811279,198.28818,521.192712
4.34,0.981936,0.811289,198.289211,521.198414
4.35,0.981935,0.811298,198.290205,521.204002
4.36,0.981933,0.811307,198.291162,521.209462
4.37,0.981932,0.811316,198.292081,521.214779
