b:tnow in s,s:ut in p.u.,s:cur1 in p.u.,s:Q1 in Mvar,s:P1 in MW
0,0.9831,0.866652,205.144371,650
0.01,0.983028,0.866988,205.21294,650.203601
0.02,0.983026,0.866998,205.210512,650.210693
0.03,0.983024,0.867006,205.207912,650.216482
0.04,0.983022,0.867012,205.205029,650.221637
0.05,0.983021,0.867018,205.201826,650.226611
0.06,0.983021,0.867023,205.198296,650.231687
0.07,0.98302,0.867028,205.194458,650.237043
0.08,0.98302,0.867034,205.190337,650.242789
0.09,0.983021,0.867039,205.185959,650.248982
0.1,0.983021,0.867045,205.181351,650.255646
0.11,0.983022,0.867052,205.176538,650.262781
0.12,0.983023,0.867058,205.171542,650.27037
0.13,0.983024,0.867065,205.166382,650.278385
0.14,0.983025,0.867072,205.161077,650.286786
0.15,0.983026,0.867079,205.155641,650.295528
0.16,0.983028,0.867087,205.150091,650.304563
0.17,0.983029,0.867095,205.144439,650.313835
0.18,0.983031,0.867102,205.138698,650.323289
0.19,0.983033,0.86711,205.13288,650.332867
0.2,0.983035,0.867118,205.126997,650.342511
0.21,0.983037,0.867126,205.12106,650.352161
0.22,0.983039,0.867133,205.115082,650.361757
0.23,0.983041,0.867141,205.109074,650.37124
0.24,0.983043,0.867148,205.103047,650.380552
0.25,0.983045,0.867154,205.097012,650.389634
0.26,0.983047,0.867161,205.090983,650.398432
0.27,0.98305,0.867167,205.084969,650.40689
0.28,0.983052,0.867172,205.078983,650.414955
0.29,0.983055,0.867177,205.073036,650.422576
0.3,0.983057,0.867181,205.06714,650.429704
0.31,0.98306,0.867184,205.061307,650.436294
0.32,0.983062,0.867187,205.055548,650.442301
0.33,0.983065,0.867189,205.049874,650.447684
0.34,0.983068,0.867191,205.044296,650.452406
0.35,0.98307,0.867191,205.038825,650.45643
0.36,0.983073,0.86719,205.033472,650.459726
0.37,0.983076,0.867189,205.028246,650.462264
0.38,0.983079,0.867187,205.023158,650.46402
0.39,0.983081,0.867184,205.018217,650.464971
0.4,0.983084,0.867179,205.013433,650.465099
0.41,0.983087,0.867174,205.008813,650.46439
0.42,0.98309,0.867168,205.004366,650.462832
0.43,0.983093,0.867161,205.000099,650.460418
0.44,0.983096,0.867153,204.996021,650.457143
0.45,0.983099,0.867144,204.992136,650.453009
0.46,0.983101,0.867134,204.988453,650.448018
0.47,0.983104,0.867123,204.984975,650.442178
0.48,0.983107,0.867111,204.981708,650.4355
0.49,0.98311,0.867098,204.978656,650.427997
0.5,0.983113,0.867085,204.975823,650.419687
0.51,0.983116,0.86707,204.973212,650.410592
0.52,0.983118,0.867055,204.970826,650.400736
0.53,0.983121,0.867039,204.968667,650.390146
0.54,0.983124,0.867022,204.966736,650.378854
0.55,0.983127,0.867004,204.965034,650.366892
0.56,0.983129,0.866986,204.963562,650.354298
0.57,0.983132,0.866967,204.962318,650.34111
0.58,0.983134,0.866948,204.961303,650.32737
0.59,0.983137,0.866928,204.960514,650.313122
0.6,0.983139,0.866908,204.95995,650.298411
0.61,0.983142,0.866888,204.959608,650.283287
0.62,0.983144,0.866867,204.959485,650.267799
0.63,0.983146,0.866846,204.959578,650.251998
0.64,0.983148,0.866824,204.959884,650.235937
0.65,0.98315,0.866803,204.960396,650.219671
0.66,0.983152,0.866782,204.961112,650.203255
0.67,0.983154,0.86676,204.962025,650.186745
0.68,0.983156,0.866739,204.963131,650.170196
0.69,0.983158,0.866718,204.964422,650.153667
0.7,0.983159,0.866697,204.965894,650.137214
0.71,0.983161,0.866677,204.967538,650.120894
0.72,0.983162,0.866657,204.96935,650.104765
0.73,0.983163,0.866637,204.971321,650.088882
0.74,0.983165,0.866618,204.973444,650.073302
0.75,0.983165,0.8666,204.975711,650.058079
0.76,0.983166,0.866582,204.978116,650.043267
0.77,0.983167,0.866565,204.98065,650.028919
0.78,0.983168,0.866549,204.983304,650.015087
0.79,0.983168,0.866533,204.986072,650.001819
0.8,0.983168,0.866519,204.988945,649.989164
0.81,0.983168,0.866505,204.991915,649.977167
0.82,0.983168,0.866493,204.994973,649.965873
0.83,0.983168,0.866481,204.998111,649.955323
0.84,0.983168,0.866471,205.001322,649.945556
0.85,0.983168,0.866462,205.004596,649.936609
0.86,0.983167,0.866454,205.007926,649.928515
0.87,0.983166,0.866447,205.011304,649.921307
0.88,0.983165,0.866442,205.014721,649.915011
0.89,0.983164,0.866437,205.018171,649.909655
0.9,0.983163,0.866434,205.021645,649.905259
0.91,0.983161,0.866433,205.025135,649.901844
0.92,0.98316,0.866433,205.028635,649.899425
0.93,0.983158,0.866434,205.032138,649.898015
0.94,0.983156,0.866437,205.035636,649.897624
0.95,0.983154,0.866441,205.039122,649.898258
0.96,0.983151,0.866446,205.04259,649.899919
0.97,0.983149,0.866453,205.046034,649.902607
0.98,0.983146,0.866461,205.049447,649.906319
0.99,0.983143,0.86647,205.052824,649.911047
1,0.983141,0.866481,205.056159,649.916781
1.01,0.983137,0.866493,205.059446,649.923507
1.02,0.983134,0.866507,205.062681,649.931209
1.03,0.983131,0.866522,205.065859,649.939867
1.04,0.983127,0.866538,205.068975,649.949458
1.05,0.983123,0.866555,205.072025,649.959955
1.06,0.983119,0.866573,205.075005,649.97133
1.07,0.983115,0.866593,205.07791,649.983552
1.08,0.983111,0.866613,205.080738,649.996586
1.09,0.983107,0.866635,205.083485,650.010395
1.1,0.983103,0.866657,205.086148,650.02494
1.11,0.983098,0.866681,205.088724,650.040179
1.12,0.983093,0.866705,205.091211,650.056069
1.13,0.983089,0.86673,205.093607,650.072563
1.14,0.983084,0.866756,205.095908,650.089615
1.15,0.983079,0.866782,205.098115,650.107174
1.16,0.983074,0.86681,205.100225,650.12519
1.17,0.983069,0.866837,205.102236,650.143611
1.18,0.983064,0.866865,205.104148,650.162383
1.19,0.983058,0.866894,205.105959,650.181452
1.2,0.983053,0.866923,205.107669,650.200763
1.21,0.983048,0.866951,205.109277,650.220258
1.22,0.983042,0.866981,205.110784,650.239883
1.23,0.983037,0.86701,205.112187,650.25958
1.24,0.983031,0.867039,205.113489,650.279293
1.25,0.983026,0.867068,205.114688,650.298964
1.26,0.98302,0.867097,205.115786,650.318538
1.27,0.983015,0.867126,205.116782,650.337958
1.28,0.983009,0.867154,205.117677,650.357168
1.29,0.983004,0.867183,205.118472,650.376115
1.3,0.982998,0.86721,205.119168,650.394744
1.31,0.982993,0.867237,205.119765,650.413004
1.32,0.982988,0.867264,205.120266,650.430841
1.33,0.982983,0.86729,205.12067,650.448208
1.34,0.982977,0.867315,205.12098,650.465056
1.35,0.982972,0.867339,205.121196,650.481339
1.36,0.982967,0.867363,205.121321,650.497011
1.37,0.982962,0.867385,205.121356,650.512032
1.38,0.982957,0.867407,205.121301,650.52636
1.39,0.982953,0.867428,205.12116,650.539958
1.4,0.982948,0.867447,205.120934,650.55279
1.41,0.982944,0.867465,205.120625,650.564824
1.42,0.982939,0.867483,205.120234,650.576029
1.43,0.982935,0.867499,205.119764,650.586377
1.44,0.982931,0.867514,205.119217,650.595844
1.45,0.982927,0.867527,205.118594,650.604408
1.46,0.982923,0.86754,205.117897,650.612049
1.47,0.98292,0.867551,205.11713,650.618752
1.48,0.982916,0.86756,205.116293,650.624503
1.49,0.982913,0.867569,205.11539,650.629293
1.5,0.98291,0.867576,205.114421,650.633113
1.51,0.982907,0.867581,205.11339,650.63596
1.52,0.982905,0.867585,205.112298,650.637834
1.53,0.982902,0.867588,205.111148,650.638736
1.54,0.9829,0.86759,205.109942,650.638671
1.55,0.982898,0.86759,205.108682,650.637647
1.56,0.982896,0.867588,205.10737,650.635675
1.57,0.982894,0.867586,205.106008,650.632768
1.58,0.982893,0.867582,205.104599,650.628945
1.59,0.982892,0.867577,205.103144,650.624222
1.6,0.982891,0.86757,205.101647,650.618624
1.61,0.98289,0.867562,205.100108,650.612174
1.62,0.982889,0.867554,205.09853,650.604899
1.63,0.982889,0.867543,205.096916,650.596829
1.64,0.982889,0.867532,205.095266,650.587995
1.65,0.982889,0.86752,205.093584,650.578432
1.66,0.982889,0.867507,205.09187,650.568174
1.67,0.982889,0.867492,205.090128,650.55726
1.68,0.98289,0.867477,205.088359,650.545729
1.69,0.982891,0.867461,205.086566,650.533621
1.7,0.982892,0.867444,205.084749,650.52098
1.71,0.982893,0.867426,205.08291,650.50785
1.72,0.982894,0.867408,205.081053,650.494274
1.73,0.982896,0.867389,205.079178,650.480299
1.74,0.982898,0.867369,205.077287,650.465972
1.75,0.9829,0.867349,205.075382,650.451339
1.76,0.982902,0.867329,205.073464,650.43645
1.77,0.982904,0.867308,205.071537,650.421351
1.78,0.982906,0.867286,205.0696,650.406092
1.79,0.982909,0.867265,205.067656,650.39072
1.8,0.982911,0.867243,205.065707,650.375284
1.81,0.982914,0.867221,205.063753,650.359832
1.82,0.982917,0.867199,205.061798,650.344411
1.83,0.98292,0.867177,205.059841,650.329068
1.84,0.982923,0.867155,205.057886,650.313849
1.85,0.982926,0.867134,205.055932,650.2988
1.86,0.982929,0.867112,205.053983,650.283963
1.87,0.982932,0.867091,205.052039,650.269382
1.88,0.982936,0.86707,205.050103,650.255099
1.89,0.982939,0.867049,205.048174,650.241153
1.9,0.982943,0.867029,205.046256,650.227582
1.91,0.982946,0.867009,205.04435,650.214425
1.92,0.98295,0.86699,205.042456,650.201714
1.93,0.982953,0.866971,205.040577,650.189484
1.94,0.982957,0.866953,205.038714,650.177766
1.95,0.98296,0.866936,205.036869,650.166587
1.96,0.982964,0.866919,205.035043,650.155976
1.97,0.982968,0.866903,205.033237,650.145956
1.98,0.982971,0.866888,205.031453,650.13655
1.99,0.982975,0.866873,205.029694,650.127778
2,0.982978,0.86686,205.027959,650.119656
2.01,0.982982,0.866847,205.026251,650.112201
2.02,0.982985,0.866835,205.024571,650.105425
2.03,0.982988,0.866824,205.022921,650.099337
2.04,0.982992,0.866814,205.021302,650.093947
2.05,0.982995,0.866805,205.019716,650.089258
2.06,0.982998,0.866797,205.018164,650.085274
2.07,0.983001,0.866789,205.016648,650.081996
2.08,0.983004,0.866783,205.01517,650.079421
2.09,0.983007,0.866778,205.01373,650.077545
2.1,0.98301,0.866773,205.012331,650.076362
2.11,0.983012,0.86677,205.010973,650.075862
2.12,0.983015,0.866767,205.009659,650.076035
2.13,0.983017,0.866766,205.00839,650.076868
2.14,0.98302,0.866765,205.007167,650.078345
2.15,0.983022,0.866765,205.005992,650.08045
2.16,0.983024,0.866766,205.004866,650.083163
2.17,0.983026,0.866768,205.00379,650.086464
2.18,0.983028,0.86677,205.002767,650.09033
2.19,0.98303,0.866774,205.001797,650.094738
2.2,0.983032,0.866778,205.000881,650.099661
2.21,0.983033,0.866783,205.000022,650.105074
2.22,0.983035,0.866788,204.999219,650.110949
2.23,0.983036,0.866794,204.998475,650.117257
2.24,0.983037,0.866801,204.99779,650.123967
2.25,0.983038,0.866809,204.997166,650.131049
2.26,0.983039,0.866817,204.996603,650.138471
2.27,0.98304,0.866825,204.996103,650.146202
2.28,0.983041,0.866834,204.995666,650.154209
2.29,0.983041,0.866843,204.995293,650.162459
2.3,0.983042,0.866853,204.994986,650.17092
2.31,0.983042,0.866863,204.994744,650.179557
2.32,0.983042,0.866874,204.994569,650.188339
2.33,0.983042,0.866884,204.99446,650.197233
2.34,0.983042,0.866895,204.994419,650.206206
2.35,0.983042,0.866906,204.994446,650.215226
2.36,0.983042,0.866917,204.994541,650.224262
2.37,0.983042,0.866929,204.994704,650.233283
2.38,0.983041,0.86694,204.994935,650.24226
2.39,0.983041,0.866951,204.995235,650.251162
2.4,0.98304,0.866963,204.995603,650.259962
2.41,0.98304,0.866974,204.996039,650.268634
2.42,0.983039,0.866985,204.996543,650.27715
2.43,0.983038,0.866996,204.997114,650.285487
2.44,0.983037,0.867007,204.997752,650.293622
2.45,0.983036,0.867018,204.998456,650.301531
2.46,0.983035,0.867028,204.999225,650.309196
2.47,0.983034,0.867039,205.000059,650.316596
2.48,0.983033,0.867049,205.000956,650.323716
2.49,0.983031,0.867058,205.001916,650.330538
2.5,0.98303,0.867068,205.002937,650.337049
2.51,0.983029,0.867077,205.004018,650.343236
2.52,0.983027,0.867086,205.005158,650.349088
2.53,0.983026,0.867094,205.006354,650.354598
2.54,0.983024,0.867102,205.007606,650.359756
2.55,0.983023,0.86711,205.008911,650.364557
2.56,0.983021,0.867117,205.010268,650.368999
2.57,0.98302,0.867124,205.011674,650.373077
2.58,0.983018,0.867131,205.013128,650.376792
2.59,0.983016,0.867137,205.014627,650.380144
2.6,0.983015,0.867142,205.016168,650.383136
2.61,0.983013,0.867148,205.01775,650.385773
2.62,0.983011,0.867152,205.01937,650.38806
2.63,0.98301,0.867157,205.021026,650.390004
2.64,0.983008,0.867161,205.022714,650.391613
2.65,0.983006,0.867165,205.024431,650.392898
2.66,0.983005,0.867168,205.026175,650.393869
2.67,0.983003,0.867171,205.027944,650.39454
2.68,0.983001,0.867174,205.029733,650.394922
2.69,0.982999,0.867176,205.031539,650.395031
2.7,0.982998,0.867178,205.03336,650.394883
2.71,0.982996,0.86718,205.035193,650.394493
2.72,0.982994,0.867181,205.037033,650.393878
2.73,0.982993,0.867183,205.038878,650.393056
2.74,0.982991,0.867183,205.040724,650.392046
2.75,0.982989,0.867184,205.042569,650.390867
2.76,0.982988,0.867185,205.044407,650.389537
2.77,0.982986,0.867185,205.046237,650.388076
2.78,0.982985,0.867185,205.048054,650.386504
2.79,0.982983,0.867185,205.049855,650.38484
2.8,0.982981,0.867185,205.051636,650.383106
2.81,0.98298,0.867185,205.053395,650.381319
2.82,0.982978,0.867185,205.055128,650.379501
2.83,0.982977,0.867185,205.056831,650.37767
2.84,0.982975,0.867184,205.058501,650.375846
2.85,0.982974,0.867184,205.060135,650.374046
2.86,0.982973,0.867184,205.061729,650.372289
2.87,0.982971,0.867184,205.06328,650.370593
2.88,0.98297,0.867183,205.064786,650.368975
2.89,0.982968,0.867183,205.066242,650.367449
2.9,0.982967,0.867183,205.067647,650.366033
2.91,0.982966,0.867183,205.068997,650.364739
2.92,0.982965,0.867183,205.070289,650.363581
2.93,0.982963,0.867184,205.071522,650.362572
2.94,0.982962,0.867184,205.072691,650.361724
2.95,0.982961,0.867185,205.073796,650.361045
2.96,0.98296,0.867186,205.074833,650.360547
2.97,0.982959,0.867187,205.0758,650.360235
2.98,0.982958,0.867188,205.076696,650.360118
2.99,0.982957,0.867189,205.077519,650.360201
3,0.982956,0.86719,205.078266,650.360489
3.01,0.982955,0.867192,205.078937,650.360983
3.02,0.982954,0.867194,205.079529,650.361687
3.03,0.982953,0.867196,205.080042,650.362601
3.04,0.982952,0.867198,205.080475,650.363724
3.05,0.982952,0.867201,205.080827,650.365055
3.06,0.982951,0.867203,205.081096,650.36659
3.07,0.98295,0.867206,205.081283,650.368325
3.08,0.98295,0.867209,205.081387,650.370254
3.09,0.982949,0.867212,205.081408,650.372372
3.1,0.982948,0.867216,205.081346,650.37467
3.11,0.982948,0.867219,205.081201,650.377141
3.12,0.982947,0.867222,205.080974,650.379773
3.13,0.982947,0.867226,205.080665,650.382556
3.14,0.982947,0.86723,205.080275,650.38548
3.15,0.982946,0.867234,205.079805,650.388531
3.16,0.982946,0.867238,205.079257,650.391696
3.17,0.982946,0.867241,205.07863,650.394961
3.18,0.982946,0.867245,205.077927,650.398312
3.19,0.982945,0.867249,205.07715,650.401734
3.2,0.982945,0.867253,205.076301,650.405211
3.21,0.982945,0.867257,205.07538,650.408727
3.22,0.982945,0.867261,205.074392,650.412265
3.23,0.982945,0.867265,205.073337,650.415809
3.24,0.982946,0.867269,205.072219,650.419342
3.25,0.982946,0.867272,205.071039,650.422847
3.26,0.982946,0.867276,205.069802,650.426307
3.27,0.982946,0.867279,205.068509,650.429705
3.28,0.982947,0.867282,205.067164,650.433023
3.29,0.982947,0.867285,205.065769,650.436245
3.3,0.982948,0.867288,205.064329,650.439356
3.31,0.982948,0.867291,205.062846,650.442338
3.32,0.982949,0.867293,205.061325,650.445175
3.33,0.98295,0.867295,205.059767,650.447854
3.34,0.98295,0.867297,205.058178,650.450359
3.35,0.982951,0.867298,205.056561,650.452676
3.36,0.982952,0.867299,205.054919,650.454792
3.37,0.982953,0.8673,205.053256,650.456694
3.38,0.982954,0.867301,205.051576,650.458371
3.39,0.982955,0.867301,205.049884,650.459812
3.4,0.982956,0.867301,205.048182,650.461007
3.41,0.982958,0.8673,205.046475,650.461946
3.42,0.982959,0.867299,205.044767,650.462623
3.43,0.98296,0.867298,205.043062,650.46303
3.44,0.982961,0.867296,205.041362,650.463161
3.45,0.982963,0.867294,205.039674,650.463011
3.46,0.982964,0.867292,205.037999,650.462577
3.47,0.982966,0.867289,205.036342,650.461857
3.48,0.982967,0.867286,205.034707,650.460849
3.49,0.982969,0.867282,205.033097,650.459553
3.5,0.982971,0.867278,205.031516,650.457969
3.51,0.982972,0.867274,205.029967,650.456102
3.52,0.982974,0.867269,205.028453,650.453953
3.53,0.982976,0.867264,205.026979,650.451527
3.54,0.982977,0.867258,205.025546,650.44883
3.55,0.982979,0.867253,205.024159,650.445869
3.56,0.982981,0.867247,205.02282,650.442651
3.57,0.982983,0.86724,205.021532,650.439187
3.58,0.982985,0.867234,205.020297,650.435485
3.59,0.982987,0.867227,205.019118,650.431557
3.6,0.982989,0.86722,205.017998,650.427415
3.61,0.982991,0.867212,205.016938,650.423072
3.62,0.982993,0.867205,205.015941,650.418541
3.63,0.982995,0.867197,205.015009,650.413838
3.64,0.982997,0.867189,205.014143,650.408977
3.65,0.982999,0.867181,205.013345,650.403975
3.66,0.983001,0.867173,205.012616,650.398848
3.67,0.983003,0.867164,205.011957,650.393614
3.68,0.983004,0.867156,205.01137,650.38829
3.69,0.983006,0.867147,205.010856,650.382895
3.7,0.983008,0.867139,205.010414,650.377447
3.71,0.98301,0.86713,205.010046,650.371965
3.72,0.983012,0.867122,205.009751,650.366468
3.73,0.983014,0.867114,205.00953,650.360976
3.74,0.983016,0.867105,205.009383,650.355508
3.75,0.983017,0.867097,205.00931,650.350084
3.76,0.983019,0.867089,205.00931,650.344721
3.77,0.983021,0.867081,205.009383,650.339441
3.78,0.983022,0.867074,205.009527,650.334262
3.79,0.983024,0.867066,205.009742,650.329202
3.8,0.983026,0.867059,205.010028,650.324279
3.81,0.983027,0.867052,205.010382,650.319513
3.82,0.983028,0.867045,205.010803,650.314919
3.83,0.98303,0.867039,205.01129,650.310516
3.84,0.983031,0.867033,205.011841,650.306319
3.85,0.983032,0.867027,205.012455,650.302344
3.86,0.983033,0.867022,205.013129,650.298605
3.87,0.983035,0.867017,205.013862,650.295117
3.88,0.983036,0.867013,205.014651,650.291894
3.89,0.983036,0.867009,205.015495,650.288947
3.9,0.983037,0.867005,205.01639,650.286288
3.91,0.983038,0.867002,205.017334,650.283927
3.92,0.983039,0.866999,205.018326,650.281874
3.93,0.983039,0.866997,205.019362,650.280137
3.94,0.98304,0.866995,205.020439,650.278724
3.95,0.98304,0.866994,205.021556,650.277641
3.96,0.983041,0.866993,205.022709,650.276893
3.97,0.983041,0.866993,205.023896,650.276484
3.98,0.983041,0.866993,205.025113,650.276417
3.99,0.983041,0.866994,205.026359,650.276694
4,0.983041,0.866995,205.027629,650.277316
4.01,0.983041,0.866997,205.028922,650.278282
4.02,0.983041,0.866999,205.030235,650.279591
4.03,0.983041,0.867002,205.031564,650.281239
4.04,0.983041,0.867005,205.032908,650.283222
4.05,0.98304,0.867008,205.034262,650.285537
4.06,0.98304,0.867012,205.035625,650.288177
4.07,0.983039,0.867017,205.036994,650.291134
4.08,0.983039,0.867022,205.038366,650.294401
4.09,0.983038,0.867027,205.039738,650.297969
4.1,0.983037,0.867033,205.041108,650.301827
4.11,0.983037,0.86704,205.042474,650.305965
4.12,0.983036,0.867046,205.043833,650.31037
4.13,0.983035,0.867053,205.045183,650.315032
4.14,0.983034,0.867061,205.046521,650.319935
4.15,0.983033,0.867068,205.047846,650.325066
4.16,0.983032,0.867076,205.049155,650.33041
4.17,0.98303,0.867084,205.050447,650.335952
4.18,0.983029,0.867093,205.051719,650.341676
4.19,0.983028,0.867102,205.052969,650.347565
4.2,0.983027,0.867111,205.054197,650.353604
4.21,0.983025,0.86712,205.0554,650.359774
4.22,0.983024,0.867129,205.056577,650.366058
4.23,0.983022,0.867139,205.057727,650.372439
4.24,0.983021,0.867148,205.058848,650.378898
4.25,0.983019,0.867158,205.05994,650.385418
4.26,0.983018,0.867167,205.061,650.39198
4.27,0.983016,0.867177,205.062029,650.398567
4.28,0.983015,0.867187,205.063025,650.405161
4.29,0.983013,0.867197,205.063987,650.411743
4.3,0.983012,0.867206,205.064916,650.418296
4.31,0.98301,0.867216,205.065809,650.424803
4.32,0.983009,0.867225,205.066668,650.431247
4.33,0.983007,0.867235,205.067492,650.43761
4.34,0.983005,0.867244,205.06828,650.443877
4.35,0.983004,0.867253,205.069032,650.450032
4.36,0.983002,0.867262,205.069748,650.456059
4.37,0.983001,0.867271,205.070428,650.461944
