b:tnow in s,s:ut in p.u.,s:cur1 in p.u.,s:Q1 in Mvar,s:P1 in MW
0,1.0123,0.87978,165.763649,508
0.01,1.012231,0.880194,165.846061,508.199016
0.02,1.012227,0.880195,165.841734,508.199327
0.03,1.012224,0.880196,165.837937,508.199516
0.04,1.012221,0.880198,165.834414,508.200001
0.05,1.012219,0.880199,165.831025,508.201031
0.06,1.012218,0.880202,165.827684,508.202736
0.07,1.012217,0.880205,165.824344,508.205179
0.08,1.012216,0.880209,165.820982,508.208378
0.09,1.012215,0.880214,165.817584,508.212318
0.1,1.012215,0.880219,165.814143,508.216967
0.11,1.012216,0.880225,165.81066,508.222275
0.12,1.012216,0.880232,165.807135,508.228188
0.13,1.012217,0.88024,165.803572,508.234643
0.14,1.012218,0.880248,165.799975,508.241572
0.15,1.012219,0.880257,165.79635,508.248907
0.16,1.012221,0.880266,165.792701,508.256577
0.17,1.012222,0.880275,165.789036,508.264511
0.18,1.012224,0.880284,165.78536,508.272637
0.19,1.012226,0.880294,165.78168,508.280884
0.2,1.012228,0.880303,165.778002,508.289182
0.21,1.01223,0.880312,165.774333,508.297464
0.22,1.012232,0.880321,165.770681,508.305661
0.23,1.012234,0.88033,165.767051,508.313708
0.24,1.012237,0.880339,165.76345,508.321544
0.25,1.012239,0.880346,165.759885,508.329107
0.26,1.012242,0.880354,165.756364,508.33634
0.27,1.012244,0.88036,165.752892,508.343188
0.28,1.012247,0.880366,165.749475,508.3496
0.29,1.01225,0.880371,165.746121,508.355525
0.3,1.012253,0.880376,165.742834,508.36092
0.31,1.012256,0.880379,165.739621,508.365741
0.32,1.012259,0.880381,165.736487,508.36995
0.33,1.012262,0.880383,165.733438,508.373512
0.34,1.012265,0.880383,165.730478,508.376396
0.35,1.012268,0.880382,165.727611,508.378573
0.36,1.012271,0.880381,165.724842,508.380019
0.37,1.012274,0.880378,165.722175,508.380715
0.38,1.012277,0.880373,165.719613,508.380643
0.39,1.01228,0.880368,165.717159,508.37979
0.4,1.012284,0.880361,165.714816,508.378147
0.41,1.012287,0.880354,165.712587,508.375709
0.42,1.01229,0.880345,165.710472,508.372472
0.43,1.012293,0.880335,165.708474,508.36844
0.44,1.012296,0.880323,165.706594,508.363615
0.45,1.0123,0.880311,165.704833,508.358008
0.46,1.012303,0.880297,165.703192,508.351629
0.47,1.012306,0.880283,165.701669,508.344492
0.48,1.012309,0.880267,165.700267,508.336617
0.49,1.012312,0.88025,165.698983,508.328023
0.5,1.012315,0.880233,165.697817,508.318735
0.51,1.012318,0.880214,165.696768,508.308778
0.52,1.012321,0.880194,165.695834,508.298181
0.53,1.012324,0.880174,165.695015,508.286975
0.54,1.012326,0.880153,165.694308,508.275194
0.55,1.012329,0.880131,165.693712,508.262873
0.56,1.012331,0.880108,165.693223,508.250051
0.57,1.012334,0.880085,165.69284,508.236765
0.58,1.012336,0.880061,165.69256,508.223057
0.59,1.012339,0.880037,165.692379,508.20897
0.6,1.012341,0.880013,165.692297,508.194547
0.61,1.012343,0.879988,165.692308,508.179834
0.62,1.012345,0.879963,165.69241,508.164875
0.63,1.012347,0.879937,165.6926,508.149718
0.64,1.012349,0.879912,165.692875,508.13441
0.65,1.01235,0.879887,165.69323,508.118999
0.66,1.012352,0.879861,165.693664,508.103533
0.67,1.012353,0.879836,165.694171,508.088062
0.68,1.012355,0.879811,165.69475,508.072633
0.69,1.012356,0.879786,165.695396,508.057295
0.7,1.012357,0.879762,165.696105,508.042097
0.71,1.012358,0.879738,165.696876,508.027087
0.72,1.012359,0.879715,165.697703,508.012311
0.73,1.012359,0.879692,165.698584,507.997818
0.74,1.01236,0.87967,165.699515,507.983653
0.75,1.01236,0.879648,165.700494,507.969861
0.76,1.012361,0.879628,165.701516,507.956487
0.77,1.012361,0.879608,165.702579,507.943574
0.78,1.012361,0.879589,165.703681,507.931164
0.79,1.012361,0.879571,165.704817,507.919297
0.8,1.01236,0.879554,165.705985,507.908013
0.81,1.01236,0.879539,165.707183,507.897349
0.82,1.012359,0.879524,165.708407,507.887341
0.83,1.012358,0.879511,165.709656,507.878023
0.84,1.012358,0.879499,165.710927,507.869428
0.85,1.012357,0.879488,165.712218,507.861586
0.86,1.012355,0.879479,165.713526,507.854525
0.87,1.012354,0.879471,165.71485,507.848272
0.88,1.012353,0.879464,165.716187,507.84285
0.89,1.012351,0.879459,165.717537,507.838281
0.9,1.012349,0.879456,165.718896,507.834585
0.91,1.012347,0.879454,165.720264,507.831779
0.92,1.012345,0.879453,165.72164,507.829878
0.93,1.012343,0.879454,165.723022,507.828894
0.94,1.012341,0.879457,165.724408,507.828836
0.95,1.012339,0.879461,165.725798,507.829711
0.96,1.012336,0.879467,165.727191,507.831525
0.97,1.012333,0.879474,165.728586,507.834278
0.98,1.012331,0.879483,165.729982,507.837971
0.99,1.012328,0.879493,165.731379,507.842599
1,1.012325,0.879505,165.732776,507.848157
1.01,1.012321,0.879519,165.734172,507.854636
1.02,1.012318,0.879534,165.735567,507.862023
1.03,1.012315,0.879551,165.736961,507.870306
1.04,1.012311,0.879569,165.738353,507.879467
1.05,1.012308,0.879588,165.739744,507.889487
1.06,1.012304,0.879609,165.741133,507.900344
1.07,1.0123,0.879632,165.74252,507.912013
1.08,1.012296,0.879655,165.743905,507.924467
1.09,1.012292,0.87968,165.745287,507.937677
1.1,1.012288,0.879706,165.746668,507.951612
1.11,1.012284,0.879733,165.748047,507.966236
1.12,1.01228,0.879762,165.749424,507.981514
1.13,1.012275,0.879791,165.750799,507.997408
1.14,1.012271,0.879821,165.752172,508.013877
1.15,1.012266,0.879853,165.753544,508.030878
1.16,1.012262,0.879885,165.754914,508.048369
1.17,1.012257,0.879917,165.756283,508.066302
1.18,1.012253,0.879951,165.757651,508.084631
1.19,1.012248,0.879985,165.759018,508.103307
1.2,1.012243,0.880019,165.760383,508.122281
1.21,1.012239,0.880054,165.761747,508.1415
1.22,1.012234,0.880089,165.763111,508.160914
1.23,1.012229,0.880125,165.764473,508.180469
1.24,1.012225,0.88016,165.765834,508.200112
1.25,1.01222,0.880196,165.767194,508.219789
1.26,1.012215,0.880231,165.768553,508.239446
1.27,1.01221,0.880267,165.76991,508.259028
1.28,1.012206,0.880302,165.771266,508.278481
1.29,1.012201,0.880337,165.772621,508.297751
1.3,1.012196,0.880371,165.773973,508.316784
1.31,1.012192,0.880405,165.775323,508.335527
1.32,1.012187,0.880439,165.776671,508.353928
1.33,1.012183,0.880471,165.778015,508.371935
1.34,1.012179,0.880503,165.779357,508.389499
1.35,1.012174,0.880535,165.780694,508.406569
1.36,1.01217,0.880565,165.782028,508.423098
1.37,1.012166,0.880594,165.783356,508.43904
1.38,1.012162,0.880622,165.78468,508.454351
1.39,1.012158,0.880649,165.785997,508.468988
1.4,1.012154,0.880675,165.787308,508.482912
1.41,1.012151,0.880699,165.788611,508.496084
1.42,1.012147,0.880722,165.789907,508.508468
1.43,1.012144,0.880744,165.791194,508.520032
1.44,1.01214,0.880764,165.792472,508.530744
1.45,1.012137,0.880783,165.793739,508.540576
1.46,1.012134,0.8808,165.794996,508.549503
1.47,1.012132,0.880816,165.79624,508.557504
1.48,1.012129,0.88083,165.797472,508.564558
1.49,1.012126,0.880842,165.798691,508.570649
1.5,1.012124,0.880853,165.799895,508.575764
1.51,1.012122,0.880862,165.801083,508.579893
1.52,1.01212,0.880869,165.802255,508.583029
1.53,1.012118,0.880875,165.80341,508.585168
1.54,1.012116,0.880879,165.804547,508.586309
1.55,1.012115,0.880881,165.805665,508.586456
1.56,1.012114,0.880881,165.806762,508.585613
1.57,1.012113,0.88088,165.807839,508.58379
1.58,1.012112,0.880877,165.808894,508.580999
1.59,1.012111,0.880872,165.809926,508.577254
1.6,1.012111,0.880865,165.810935,508.572574
1.61,1.01211,0.880857,165.81192,508.566979
1.62,1.01211,0.880848,165.812879,508.560493
1.63,1.01211,0.880837,165.813812,508.553143
1.64,1.012111,0.880824,165.814718,508.544958
1.65,1.012111,0.88081,165.815597,508.535968
1.66,1.012112,0.880795,165.816447,508.526209
1.67,1.012112,0.880778,165.817269,508.515716
1.68,1.012113,0.88076,165.818061,508.504527
1.69,1.012115,0.880741,165.818823,508.492683
1.7,1.012116,0.880721,165.819555,508.480226
1.71,1.012117,0.880699,165.820256,508.467198
1.72,1.012119,0.880677,165.820926,508.453645
1.73,1.012121,0.880654,165.821564,508.439614
1.74,1.012123,0.88063,165.82217,508.425151
1.75,1.012125,0.880605,165.822745,508.410306
1.76,1.012128,0.880579,165.823288,508.395126
1.77,1.01213,0.880553,165.823798,508.379663
1.78,1.012133,0.880526,165.824278,508.363965
1.79,1.012135,0.880499,165.824725,508.348083
1.8,1.012138,0.880472,165.825141,508.332066
1.81,1.012141,0.880445,165.825527,508.315966
1.82,1.012144,0.880417,165.825881,508.299832
1.83,1.012147,0.880389,165.826206,508.283712
1.84,1.012151,0.880361,165.826502,508.267655
1.85,1.012154,0.880333,165.826769,508.251709
1.86,1.012158,0.880306,165.827009,508.235921
1.87,1.012161,0.880278,165.827222,508.220334
1.88,1.012165,0.880251,165.827409,508.204995
1.89,1.012169,0.880224,165.827572,508.189944
1.9,1.012172,0.880198,165.827711,508.175223
1.91,1.012176,0.880172,165.827829,508.160871
1.92,1.01218,0.880147,165.827926,508.146926
1.93,1.012184,0.880123,165.828003,508.133422
1.94,1.012188,0.880099,165.828063,508.120393
1.95,1.012192,0.880076,165.828108,508.10787
1.96,1.012196,0.880054,165.828138,508.095882
1.97,1.0122,0.880032,165.828155,508.084455
1.98,1.012204,0.880012,165.828163,508.073614
1.99,1.012208,0.879992,165.828161,508.06338
2,1.012212,0.879974,165.828153,508.053774
2.01,1.012216,0.879956,165.82814,508.044811
2.02,1.01222,0.87994,165.828125,508.036506
2.03,1.012224,0.879925,165.828109,508.028871
2.04,1.012228,0.87991,165.828094,508.021915
2.05,1.012231,0.879897,165.828084,508.015646
2.06,1.012235,0.879885,165.828079,508.010067
2.07,1.012239,0.879874,165.828083,508.005181
2.08,1.012243,0.879865,165.828096,508.000987
2.09,1.012246,0.879856,165.828122,507.997483
2.1,1.01225,0.879848,165.828163,507.994663
2.11,1.012253,0.879842,165.828221,507.99252
2.12,1.012257,0.879837,165.828297,507.991046
2.13,1.01226,0.879833,165.828394,507.990228
2.14,1.012263,0.87983,165.828514,507.990053
2.15,1.012267,0.879828,165.828658,507.990505
2.16,1.01227,0.879827,165.82883,507.991569
2.17,1.012273,0.879827,165.82903,507.993225
2.18,1.012276,0.879828,165.82926,507.995452
2.19,1.012278,0.87983,165.829523,507.99823
2.2,1.012281,0.879833,165.829819,508.001534
2.21,1.012284,0.879837,165.83015,508.005341
2.22,1.012286,0.879841,165.830518,508.009626
2.23,1.012289,0.879847,165.830924,508.014362
2.24,1.012291,0.879853,165.831368,508.019521
2.25,1.012293,0.87986,165.831854,508.025076
2.26,1.012295,0.879868,165.83238,508.030999
2.27,1.012297,0.879877,165.832948,508.037261
2.28,1.012299,0.879886,165.83356,508.043831
2.29,1.012301,0.879895,165.834215,508.050682
2.3,1.012302,0.879905,165.834914,508.057782
2.31,1.012304,0.879916,165.835657,508.065104
2.32,1.012305,0.879927,165.836445,508.072616
2.33,1.012306,0.879938,165.837278,508.08029
2.34,1.012308,0.87995,165.838156,508.088097
2.35,1.012309,0.879961,165.839078,508.096009
2.36,1.01231,0.879974,165.840045,508.103998
2.37,1.01231,0.879986,165.841056,508.112036
2.38,1.012311,0.879999,165.84211,508.120098
2.39,1.012312,0.880011,165.843207,508.128156
2.4,1.012312,0.880024,165.844347,508.136188
2.41,1.012313,0.880037,165.845527,508.144169
2.42,1.012313,0.880049,165.846748,508.152076
2.43,1.012313,0.880062,165.848008,508.159887
2.44,1.012314,0.880074,165.849306,508.167583
2.45,1.012314,0.880087,165.850641,508.175143
2.46,1.012314,0.880099,165.852011,508.18255
2.47,1.012313,0.880111,165.853414,508.189788
2.48,1.012313,0.880123,165.85485,508.19684
2.49,1.012313,0.880135,165.856316,508.203692
2.5,1.012312,0.880147,165.857811,508.210332
2.51,1.012312,0.880158,165.859332,508.216749
2.52,1.012311,0.880169,165.860878,508.222932
2.53,1.012311,0.880179,165.862447,508.228872
2.54,1.01231,0.88019,165.864037,508.234563
2.55,1.012309,0.8802,165.865645,508.239998
2.56,1.012309,0.880209,165.86727,508.245173
2.57,1.012308,0.880219,165.868909,508.250084
2.58,1.012307,0.880228,165.87056,508.25473
2.59,1.012306,0.880236,165.87222,508.259109
2.6,1.012305,0.880245,165.873888,508.263222
2.61,1.012303,0.880252,165.875561,508.267071
2.62,1.012302,0.88026,165.877237,508.270657
2.63,1.012301,0.880267,165.878913,508.273986
2.64,1.0123,0.880274,165.880587,508.277062
2.65,1.012299,0.88028,165.882257,508.27989
2.66,1.012297,0.880286,165.88392,508.282478
2.67,1.012296,0.880292,165.885574,508.284833
2.68,1.012294,0.880297,165.887217,508.286963
2.69,1.012293,0.880302,165.888846,508.288877
2.7,1.012291,0.880307,165.890459,508.290586
2.71,1.01229,0.880312,165.892054,508.292099
2.72,1.012288,0.880316,165.893629,508.293427
2.73,1.012287,0.88032,165.895181,508.294583
2.74,1.012285,0.880324,165.896708,508.295576
2.75,1.012284,0.880327,165.898209,508.296421
2.76,1.012282,0.88033,165.899681,508.297128
2.77,1.012281,0.880333,165.901122,508.297711
2.78,1.012279,0.880336,165.902531,508.298183
2.79,1.012277,0.880339,165.903906,508.298555
2.8,1.012276,0.880341,165.905244,508.298841
2.81,1.012274,0.880344,165.906545,508.299053
2.82,1.012273,0.880346,165.907806,508.299205
2.83,1.012271,0.880348,165.909026,508.299307
2.84,1.01227,0.88035,165.910204,508.299374
2.85,1.012268,0.880352,165.911338,508.299415
2.86,1.012266,0.880354,165.912428,508.299443
2.87,1.012265,0.880356,165.91347,508.299469
2.88,1.012263,0.880358,165.914466,508.299503
2.89,1.012262,0.88036,165.915413,508.299555
2.9,1.012261,0.880362,165.91631,508.299636
2.91,1.012259,0.880363,165.917158,508.299753
2.92,1.012258,0.880365,165.917954,508.299916
2.93,1.012256,0.880367,165.918699,508.300132
2.94,1.012255,0.880369,165.919391,508.300408
2.95,1.012254,0.880371,165.92003,508.30075
2.96,1.012252,0.880373,165.920617,508.301165
2.97,1.012251,0.880375,165.92115,508.301656
2.98,1.01225,0.880377,165.921629,508.302229
2.99,1.012249,0.88038,165.922054,508.302885
3,1.012248,0.880382,165.922425,508.303629
3.01,1.012247,0.880384,165.922743,508.304461
3.02,1.012246,0.880387,165.923006,508.305383
3.03,1.012245,0.880389,165.923216,508.306395
3.04,1.012244,0.880392,165.923373,508.307496
3.05,1.012243,0.880395,165.923477,508.308686
3.06,1.012242,0.880397,165.923529,508.309961
3.07,1.012241,0.8804,165.923529,508.311319
3.08,1.012241,0.880403,165.923477,508.312758
3.09,1.01224,0.880406,165.923375,508.314271
3.1,1.01224,0.880409,165.923223,508.315855
3.11,1.012239,0.880412,165.923022,508.317504
3.12,1.012239,0.880415,165.922773,508.319211
3.13,1.012238,0.880417,165.922478,508.320971
3.14,1.012238,0.88042,165.922136,508.322776
3.15,1.012238,0.880423,165.921749,508.324617
3.16,1.012237,0.880426,165.921318,508.326487
3.17,1.012237,0.880429,165.920845,508.328378
3.18,1.012237,0.880432,165.920331,508.330279
3.19,1.012237,0.880434,165.919777,508.332182
3.2,1.012237,0.880437,165.919184,508.334076
3.21,1.012237,0.88044,165.918554,508.335953
3.22,1.012238,0.880442,165.917888,508.337801
3.23,1.012238,0.880444,165.917189,508.339611
3.24,1.012238,0.880446,165.916456,508.341372
3.25,1.012239,0.880448,165.915693,508.343074
3.26,1.012239,0.88045,165.9149,508.344706
3.27,1.01224,0.880451,165.91408,508.346258
3.28,1.01224,0.880453,165.913233,508.34772
3.29,1.012241,0.880454,165.912362,508.349081
3.3,1.012242,0.880455,165.911468,508.350332
3.31,1.012243,0.880455,165.910553,508.351463
3.32,1.012243,0.880456,165.909618,508.352464
3.33,1.012244,0.880456,165.908666,508.353327
3.34,1.012245,0.880455,165.907698,508.354043
3.35,1.012246,0.880455,165.906716,508.354603
3.36,1.012248,0.880454,165.905722,508.355001
3.37,1.012249,0.880453,165.904717,508.355228
3.38,1.01225,0.880451,165.903703,508.355278
3.39,1.012251,0.880449,165.902681,508.355146
3.4,1.012253,0.880447,165.901654,508.354825
3.41,1.012254,0.880445,165.900623,508.354311
3.42,1.012255,0.880442,165.89959,508.3536
3.43,1.012257,0.880439,165.898556,508.352688
3.44,1.012259,0.880435,165.897523,508.351573
3.45,1.01226,0.880431,165.896493,508.350252
3.46,1.012262,0.880427,165.895467,508.348725
3.47,1.012263,0.880422,165.894446,508.346992
3.48,1.012265,0.880417,165.893432,508.345052
3.49,1.012267,0.880412,165.892427,508.342906
3.5,1.012269,0.880406,165.891432,508.340558
3.51,1.01227,0.8804,165.890448,508.338009
3.52,1.012272,0.880393,165.889476,508.335263
3.53,1.012274,0.880387,165.888518,508.332325
3.54,1.012276,0.88038,165.887575,508.3292
3.55,1.012278,0.880372,165.886648,508.325894
3.56,1.01228,0.880365,165.885738,508.322413
3.57,1.012282,0.880357,165.884846,508.318766
3.58,1.012283,0.880349,165.883973,508.314959
3.59,1.012285,0.880341,165.88312,508.311003
3.6,1.012287,0.880332,165.882287,508.306907
3.61,1.012289,0.880324,165.881477,508.30268
3.62,1.012291,0.880315,165.880688,508.298334
3.63,1.012293,0.880306,165.879923,508.293881
3.64,1.012295,0.880297,165.87918,508.289331
3.65,1.012297,0.880287,165.878462,508.284698
3.66,1.012299,0.880278,165.877768,508.279995
3.67,1.0123,0.880269,165.877099,508.275234
3.68,1.012302,0.880259,165.876455,508.270429
3.69,1.012304,0.88025,165.875836,508.265595
3.7,1.012306,0.88024,165.875243,508.260745
3.71,1.012307,0.880231,165.874675,508.255894
3.72,1.012309,0.880222,165.874133,508.251057
3.73,1.012311,0.880213,165.873617,508.246249
3.74,1.012312,0.880204,165.873126,508.241483
3.75,1.012314,0.880195,165.872661,508.236776
3.76,1.012315,0.880186,165.872221,508.232141
3.77,1.012317,0.880177,165.871805,508.227594
3.78,1.012318,0.880169,165.871415,508.223149
3.79,1.012319,0.880161,165.871048,508.218821
3.8,1.01232,0.880153,165.870706,508.214623
3.81,1.012322,0.880145,165.870386,508.21057
3.82,1.012323,0.880138,165.87009,508.206675
3.83,1.012324,0.880131,165.869816,508.202951
3.84,1.012325,0.880125,165.869564,508.19941
3.85,1.012326,0.880119,165.869333,508.196065
3.86,1.012327,0.880113,165.869122,508.192928
3.87,1.012327,0.880108,165.868931,508.190009
3.88,1.012328,0.880103,165.868758,508.187318
3.89,1.012329,0.880098,165.868604,508.184867
3.9,1.012329,0.880094,165.868467,508.182663
3.91,1.01233,0.880091,165.868347,508.180715
3.92,1.01233,0.880088,165.868242,508.179032
3.93,1.012331,0.880085,165.868153,508.177618
3.94,1.012331,0.880083,165.868077,508.176482
3.95,1.012331,0.880081,165.868014,508.175627
3.96,1.012331,0.88008,165.867963,508.175059
3.97,1.012331,0.88008,165.867923,508.17478
3.98,1.012331,0.88008,165.867894,508.174794
3.99,1.012331,0.880081,165.867874,508.175102
4,1.012331,0.880082,165.867862,508.175706
4.01,1.012331,0.880083,165.867858,508.176604
4.02,1.01233,0.880085,165.867861,508.177798
4.03,1.01233,0.880088,165.867869,508.179284
4.04,1.012329,0.880091,165.867882,508.181059
4.05,1.012329,0.880095,165.867899,508.183122
4.06,1.012328,0.880099,165.86792,508.185467
4.07,1.012327,0.880104,165.867942,508.188089
4.08,1.012327,0.880109,165.867966,508.190982
4.09,1.012326,0.880115,165.867991,508.19414
4.1,1.012325,0.880121,165.868016,508.197554
4.11,1.012324,0.880128,165.86804,508.201217
4.12,1.012323,0.880135,165.868062,508.20512
4.13,1.012322,0.880142,165.868082,508.209253
4.14,1.012321,0.88015,165.868099,508.213605
4.15,1.01232,0.880158,165.868112,508.218167
4.16,1.012319,0.880166,165.868121,508.222925
4.17,1.012317,0.880175,165.868125,508.227868
4.18,1.012316,0.880184,165.868124,508.232984
4.19,1.012315,0.880194,165.868117,508.23826
4.2,1.012313,0.880203,165.868104,508.243682
4.21,1.012312,0.880213,165.868083,508.249237
4.22,1.01231,0.880224,165.868056,508.25491
4.23,1.012309,0.880234,165.86802,508.260687
4.24,1.012307,0.880244,165.867977,508.266553
4.25,1.012306,0.880255,165.867925,508.272494
4.26,1.012304,0.880266,165.867864,508.278495
4.27,1.012303,0.880276,165.867794,508.284541
4.28,1.012301,0.880287,165.867715,508.290617
4.29,1.0123,0.880298,165.867627,508.296708
4.3,1.012298,0.880309,165.867529,508.302799
4.31,1.012296,0.88032,165.86742,508.308876
4.32,1.012295,0.880331,165.867302,508.314922
4.33,1.012293,0.880341,165.867174,508.320925
4.34,1.012291,0.880352,165.867035,508.32687
4.35,1.01229,0.880363,165.866886,508.332743
4.36,1.012288,0.880373,165.866726,508.338531
4.37,1.012287,0.880383,165.866556,508.344219
