b:tnow in s,s:ut in p.u.,s:cur1 in p.u.,s:Q1 in Mvar,s:P1 in MW
0,1.0265,0.808879,22.841625,830
0.01,1.026047,0.811566,22.794024,832.393144
0.02,1.026035,0.811505,22.760641,832.322092
0.03,1.026027,0.811442,22.731434,832.250625
0.04,1.026023,0.811374,22.705827,832.178288
0.05,1.026022,0.811302,22.6833,832.104622
0.06,1.026024,0.811227,22.6635,832.029365
0.07,1.026029,0.811147,22.646084,831.952241
0.08,1.026037,0.811063,22.630773,831.87307
0.09,1.026047,0.810975,22.617336,831.791743
0.1,1.02606,0.810884,22.605575,831.708219
0.11,1.026075,0.810788,22.595326,831.622519
0.12,1.026092,0.810689,22.58645,831.534717
0.13,1.02611,0.810587,22.578829,831.444931
0.14,1.026131,0.810481,22.572362,831.35332
0.15,1.026152,0.810373,22.566963,831.260076
0.16,1.026175,0.810263,22.562555,831.165418
0.17,1.0262,0.81015,22.559074,831.069588
0.18,1.026225,0.810036,22.55646,830.972846
0.19,1.026251,0.80992,22.55466,830.875465
0.2,1.026278,0.809804,22.553627,830.777731
0.21,1.026306,0.809686,22.553317,830.679936
0.22,1.026334,0.809569,22.553687,830.582377
0.23,1.026363,0.809452,22.554698,830.485355
0.24,1.026392,0.809335,22.556312,830.38917
0.25,1.026421,0.80922,22.558493,830.294119
0.26,1.026451,0.809106,22.561204,830.200497
0.27,1.02648,0.808993,22.56441,830.108592
0.28,1.026509,0.808882,22.568077,830.018688
0.29,1.026539,0.808774,22.572169,829.931056
0.3,1.026567,0.808669,22.576651,829.845963
0.31,1.026596,0.808566,22.58149,829.763659
0.32,1.026624,0.808467,22.58665,829.684387
0.33,1.026651,0.808372,22.592096,829.608375
0.34,1.026678,0.808281,22.597796,829.535837
0.35,1.026704,0.808193,22.603713,829.466973
0.36,1.026729,0.80811,22.609814,829.401968
0.37,1.026753,0.808032,22.616064,829.34099
0.38,1.026776,0.807959,22.62243,829.284192
0.39,1.026798,0.80789,22.628879,829.23171
0.4,1.026819,0.807827,22.635377,829.183661
0.41,1.026839,0.807769,22.641892,829.140147
0.42,1.026858,0.807717,22.648392,829.10125
0.43,1.026875,0.80767,22.654846,829.067035
0.44,1.026891,0.807629,22.661224,829.03755
0.45,1.026906,0.807594,22.667496,829.012825
0.46,1.026919,0.807564,22.673635,828.992869
0.47,1.026931,0.80754,22.679612,828.977678
0.48,1.026942,0.807521,22.685402,828.967228
0.49,1.026951,0.807509,22.69098,828.961478
0.5,1.026959,0.807502,22.696322,828.96037
0.51,1.026965,0.8075,22.701407,828.963831
0.52,1.02697,0.807504,22.706213,828.971772
0.53,1.026974,0.807514,22.710721,828.984087
0.54,1.026976,0.807528,22.714914,829.000656
0.55,1.026976,0.807548,22.718776,829.021347
0.56,1.026975,0.807573,22.722292,829.046012
0.57,1.026973,0.807602,22.72545,829.074491
0.58,1.02697,0.807636,22.728239,829.106613
0.59,1.026965,0.807675,22.730649,829.142196
0.6,1.026959,0.807717,22.732673,829.181047
0.61,1.026952,0.807764,22.734306,829.222963
0.62,1.026943,0.807814,22.735542,829.267736
0.63,1.026934,0.807868,22.736381,829.315148
0.64,1.026923,0.807925,22.73682,829.364973
0.65,1.026911,0.807985,22.736862,829.416983
0.66,1.026899,0.808047,22.736508,829.470944
0.67,1.026885,0.808112,22.735764,829.526617
0.68,1.026871,0.808179,22.734635,829.583762
0.69,1.026856,0.808247,22.733129,829.642137
0.7,1.02684,0.808318,22.731255,829.701501
0.71,1.026823,0.808389,22.729023,829.761609
0.72,1.026806,0.808461,22.726445,829.822221
0.73,1.026789,0.808534,22.723534,829.883098
0.74,1.026771,0.808608,22.720304,829.944003
0.75,1.026752,0.808681,22.716771,830.004706
0.76,1.026734,0.808755,22.712952,830.064977
0.77,1.026715,0.808827,22.708864,830.124596
0.78,1.026696,0.808899,22.704525,830.183348
0.79,1.026677,0.808971,22.699956,830.241022
0.8,1.026658,0.80904,22.695176,830.29742
0.81,1.026638,0.809109,22.690206,830.352349
0.82,1.026619,0.809176,22.685067,830.405625
0.83,1.026601,0.80924,22.679782,830.457076
0.84,1.026582,0.809303,22.674373,830.506538
0.85,1.026564,0.809363,22.668861,830.553859
0.86,1.026546,0.809421,22.663271,830.598897
0.87,1.026528,0.809477,22.657625,830.641522
0.88,1.026511,0.809529,22.651945,830.681616
0.89,1.026494,0.809578,22.646255,830.719073
0.9,1.026478,0.809625,22.640577,830.7538
0.91,1.026463,0.809668,22.634934,830.785714
0.92,1.026448,0.809708,22.629348,830.814748
0.93,1.026434,0.809744,22.62384,830.840845
0.94,1.02642,0.809777,22.618431,830.863962
0.95,1.026407,0.809807,22.613143,830.884069
0.96,1.026395,0.809833,22.607994,830.901148
0.97,1.026384,0.809856,22.603005,830.915193
0.98,1.026373,0.809875,22.598193,830.926211
0.99,1.026363,0.80989,22.593575,830.934221
1,1.026354,0.809902,22.589169,830.939255
1.01,1.026346,0.80991,22.58499,830.941353
1.02,1.026339,0.809915,22.581052,830.940571
1.03,1.026332,0.809917,22.577368,830.936973
1.04,1.026326,0.809915,22.573951,830.930632
1.05,1.026321,0.80991,22.570812,830.921635
1.06,1.026317,0.809902,22.56796,830.910075
1.07,1.026314,0.809891,22.565404,830.896055
1.08,1.026311,0.809877,22.563151,830.879686
1.09,1.026309,0.809861,22.561208,830.861089
1.1,1.026308,0.809841,22.559579,830.840389
1.11,1.026307,0.80982,22.558267,830.81772
1.12,1.026307,0.809796,22.557274,830.79322
1.13,1.026308,0.80977,22.556601,830.767035
1.14,1.02631,0.809742,22.556248,830.739313
1.15,1.026311,0.809712,22.556213,830.710207
1.16,1.026314,0.80968,22.556492,830.679873
1.17,1.026317,0.809647,22.557081,830.648472
1.18,1.02632,0.809613,22.557974,830.616162
1.19,1.026324,0.809578,22.559166,830.583108
1.2,1.026328,0.809542,22.560647,830.549472
1.21,1.026333,0.809505,22.56241,830.515415
1.22,1.026337,0.809468,22.564443,830.481102
1.23,1.026342,0.809431,22.566736,830.446691
1.24,1.026348,0.809393,22.569276,830.412343
1.25,1.026353,0.809356,22.572052,830.378212
1.26,1.026359,0.809319,22.575048,830.344451
1.27,1.026364,0.809282,22.578251,830.311211
1.28,1.02637,0.809246,22.581645,830.278634
1.29,1.026375,0.809211,22.585215,830.246862
1.3,1.026381,0.809176,22.588944,830.216027
1.31,1.026386,0.809143,22.592815,830.186259
1.32,1.026392,0.809111,22.596811,830.15768
1.33,1.026397,0.809081,22.600914,830.130404
1.34,1.026402,0.809052,22.605107,830.10454
1.35,1.026407,0.809024,22.60937,830.080188
1.36,1.026411,0.808999,22.613687,830.057442
1.37,1.026416,0.808975,22.618038,830.036386
1.38,1.026419,0.808953,22.622405,830.017096
1.39,1.026423,0.808934,22.62677,829.999641
1.4,1.026426,0.808916,22.631116,829.984078
1.41,1.026429,0.808901,22.635424,829.97046
1.42,1.026431,0.808887,22.639677,829.958826
1.43,1.026433,0.808877,22.643859,829.949208
1.44,1.026435,0.808868,22.647952,829.941632
1.45,1.026436,0.808862,22.65194,829.936109
1.46,1.026437,0.808858,22.655808,829.932646
1.47,1.026437,0.808857,22.659541,829.931239
1.48,1.026437,0.808858,22.663126,829.931876
1.49,1.026436,0.808861,22.666547,829.934535
1.5,1.026434,0.808867,22.669794,829.939186
1.51,1.026433,0.808875,22.672853,829.945793
1.52,1.026431,0.808885,22.675715,829.95431
1.53,1.026428,0.808897,22.678368,829.964682
1.54,1.026425,0.808911,22.680804,829.97685
1.55,1.026421,0.808928,22.683015,829.990746
1.56,1.026417,0.808946,22.684993,830.006294
1.57,1.026413,0.808966,22.686732,830.023415
1.58,1.026408,0.808988,22.688227,830.042022
1.59,1.026403,0.809012,22.689473,830.062023
1.6,1.026398,0.809037,22.690468,830.083319
1.61,1.026392,0.809063,22.69121,830.105811
1.62,1.026386,0.809091,22.691696,830.12939
1.63,1.026379,0.80912,22.691928,830.153949
1.64,1.026373,0.80915,22.691906,830.179374
1.65,1.026366,0.809181,22.691632,830.205549
1.66,1.026359,0.809213,22.691109,830.232357
1.67,1.026352,0.809245,22.690341,830.259679
1.68,1.026344,0.809277,22.689333,830.287393
1.69,1.026337,0.80931,22.68809,830.315379
1.7,1.02633,0.809344,22.686619,830.343515
1.71,1.026322,0.809377,22.684929,830.371679
1.72,1.026315,0.80941,22.683026,830.399752
1.73,1.026307,0.809443,22.68092,830.427613
1.74,1.0263,0.809476,22.678621,830.455146
1.75,1.026293,0.809508,22.67614,830.482234
1.76,1.026286,0.809539,22.673488,830.508766
1.77,1.026279,0.809569,22.670676,830.534631
1.78,1.026272,0.809599,22.667718,830.559722
1.79,1.026266,0.809628,22.664625,830.583937
1.8,1.02626,0.809655,22.661411,830.607179
1.81,1.026254,0.809681,22.65809,830.629351
1.82,1.026248,0.809706,22.654676,830.650367
1.83,1.026243,0.809729,22.651184,830.670141
1.84,1.026238,0.809751,22.647627,830.688595
1.85,1.026234,0.809771,22.644022,830.705656
1.86,1.02623,0.809789,22.640382,830.721258
1.87,1.026226,0.809805,22.636722,830.735339
1.88,1.026223,0.80982,22.633059,830.747845
1.89,1.026221,0.809832,22.629406,830.758729
1.9,1.026219,0.809843,22.625778,830.767949
1.91,1.026217,0.809851,22.622191,830.775469
1.92,1.026216,0.809858,22.618659,830.781263
1.93,1.026216,0.809862,22.615195,830.785309
1.94,1.026216,0.809864,22.611815,830.787594
1.95,1.026217,0.809864,22.608532,830.788109
1.96,1.026218,0.809861,22.605359,830.786854
1.97,1.02622,0.809857,22.602308,830.783836
1.98,1.026222,0.80985,22.599393,830.779068
1.99,1.026225,0.809841,22.596625,830.772569
2,1.026229,0.809831,22.594015,830.764366
2.01,1.026233,0.809818,22.591574,830.754491
2.02,1.026238,0.809803,22.589312,830.742983
2.03,1.026243,0.809786,22.587239,830.729886
2.04,1.026249,0.809767,22.585363,830.71525
2.05,1.026255,0.809746,22.583692,830.699133
2.06,1.026262,0.809724,22.582233,830.681595
2.07,1.026269,0.8097,22.580993,830.662703
2.08,1.026276,0.809674,22.579978,830.642527
2.09,1.026285,0.809647,22.579192,830.621143
2.1,1.026293,0.809618,22.57864,830.598631
2.11,1.026302,0.809588,22.578325,830.575075
2.12,1.026311,0.809557,22.57825,830.550562
2.13,1.026321,0.809525,22.578415,830.525181
2.14,1.026331,0.809491,22.578823,830.499026
2.15,1.026341,0.809457,22.579473,830.472192
2.16,1.026352,0.809422,22.580365,830.444777
2.17,1.026362,0.809386,22.581496,830.41688
2.18,1.026373,0.80935,22.582865,830.388603
2.19,1.026385,0.809314,22.584469,830.360045
2.2,1.026396,0.809277,22.586303,830.331311
2.21,1.026407,0.80924,22.588363,830.302501
2.22,1.026419,0.809203,22.590644,830.273719
2.23,1.02643,0.809166,22.593139,830.245066
2.24,1.026442,0.809129,22.595843,830.216644
2.25,1.026453,0.809093,22.598747,830.188551
2.26,1.026464,0.809057,22.601844,830.160887
2.27,1.026476,0.809022,22.605126,830.133747
2.28,1.026487,0.808988,22.608582,830.107225
2.29,1.026498,0.808954,22.612205,830.081413
2.3,1.026509,0.808921,22.615983,830.0564
2.31,1.026519,0.808889,22.619907,830.03227
2.32,1.02653,0.808859,22.623965,830.009106
2.33,1.02654,0.808829,22.628146,829.986986
2.34,1.026549,0.808801,22.632439,829.965983
2.35,1.026559,0.808775,22.636832,829.94617
2.36,1.026568,0.80875,22.641314,829.92761
2.37,1.026577,0.808726,22.645871,829.910364
2.38,1.026585,0.808704,22.650492,829.89449
2.39,1.026593,0.808684,22.655165,829.880038
2.4,1.0266,0.808666,22.659876,829.867055
2.41,1.026607,0.808649,22.664613,829.85558
2.42,1.026613,0.808635,22.669365,829.845651
2.43,1.026619,0.808622,22.674118,829.837296
2.44,1.026625,0.808611,22.67886,829.83054
2.45,1.02663,0.808603,22.68358,829.825403
2.46,1.026634,0.808596,22.688265,829.821898
2.47,1.026638,0.808591,22.692904,829.820032
2.48,1.026641,0.808589,22.697486,829.819808
2.49,1.026644,0.808588,22.701998,829.821222
2.5,1.026646,0.808589,22.706431,829.824266
2.51,1.026647,0.808593,22.710775,829.828926
2.52,1.026648,0.808598,22.715018,829.835182
2.53,1.026648,0.808606,22.719152,829.843009
2.54,1.026648,0.808615,22.723167,829.852378
2.55,1.026647,0.808627,22.727056,829.863253
2.56,1.026646,0.80864,22.730809,829.875595
2.57,1.026644,0.808655,22.734419,829.88936
2.58,1.026642,0.808671,22.737879,829.9045
2.59,1.026639,0.80869,22.741182,829.92096
2.6,1.026636,0.80871,22.744323,829.938685
2.61,1.026632,0.808731,22.747296,829.957613
2.62,1.026627,0.808755,22.750097,829.977681
2.63,1.026622,0.808779,22.752721,829.998821
2.64,1.026617,0.808805,22.755164,830.020961
2.65,1.026611,0.808832,22.757424,830.04403
2.66,1.026605,0.80886,22.759499,830.06795
2.67,1.026599,0.808889,22.761386,830.092643
2.68,1.026592,0.80892,22.763084,830.11803
2.69,1.026584,0.808951,22.764593,830.144029
2.7,1.026577,0.808982,22.765914,830.170557
2.71,1.026569,0.809015,22.767046,830.197529
2.72,1.026561,0.809048,22.767991,830.22486
2.73,1.026552,0.809081,22.76875,830.252465
2.74,1.026544,0.809115,22.769327,830.280259
2.75,1.026535,0.809149,22.769723,830.308155
2.76,1.026526,0.809184,22.769943,830.336068
2.77,1.026517,0.809218,22.76999,830.363914
2.78,1.026508,0.809252,22.769868,830.39161
2.79,1.026499,0.809286,22.769582,830.419073
2.8,1.02649,0.80932,22.769139,830.446221
2.81,1.026481,0.809353,22.768542,830.472977
2.82,1.026471,0.809386,22.767798,830.499262
2.83,1.026462,0.809418,22.766915,830.525002
2.84,1.026453,0.80945,22.765897,830.550125
2.85,1.026444,0.80948,22.764753,830.57456
2.86,1.026435,0.80951,22.763489,830.59824
2.87,1.026427,0.809539,22.762114,830.621102
2.88,1.026418,0.809568,22.760634,830.643085
2.89,1.02641,0.809595,22.759058,830.664131
2.9,1.026402,0.80962,22.757395,830.684188
2.91,1.026394,0.809645,22.755651,830.703205
2.92,1.026386,0.809669,22.753835,830.721137
2.93,1.026379,0.809691,22.751957,830.73794
2.94,1.026372,0.809711,22.750023,830.753578
2.95,1.026365,0.809731,22.748043,830.768015
2.96,1.026359,0.809748,22.746025,830.781224
2.97,1.026353,0.809765,22.743977,830.793177
2.98,1.026347,0.80978,22.741908,830.803854
2.99,1.026342,0.809793,22.739825,830.813239
3,1.026337,0.809804,22.737736,830.821318
3.01,1.026333,0.809814,22.735651,830.828085
3.02,1.026329,0.809823,22.733575,830.833534
3.03,1.026325,0.80983,22.731516,830.837666
3.04,1.026322,0.809835,22.729483,830.840487
3.05,1.026319,0.809838,22.727481,830.842004
3.06,1.026317,0.80984,22.725517,830.842232
3.07,1.026315,0.809841,22.723598,830.841186
3.08,1.026314,0.80984,22.72173,830.838889
3.09,1.026313,0.809837,22.719919,830.835363
3.1,1.026312,0.809833,22.718169,830.830639
3.11,1.026312,0.809827,22.716487,830.824747
3.12,1.026312,0.80982,22.714876,830.817723
3.13,1.026313,0.809811,22.713341,830.809605
3.14,1.026314,0.809802,22.711886,830.800436
3.15,1.026316,0.80979,22.710515,830.790258
3.16,1.026318,0.809778,22.70923,830.779119
3.17,1.02632,0.809764,22.708035,830.76707
3.18,1.026323,0.80975,22.706931,830.754161
3.19,1.026326,0.809734,22.705921,830.740447
3.2,1.026329,0.809717,22.705006,830.725984
3.21,1.026333,0.809699,22.704187,830.710829
3.22,1.026337,0.809681,22.703465,830.695041
3.23,1.026341,0.809661,22.702841,830.678682
3.24,1.026346,0.809641,22.702313,830.661812
3.25,1.026351,0.80962,22.701882,830.644493
3.26,1.026356,0.809599,22.701546,830.626789
3.27,1.026362,0.809577,22.701305,830.608763
3.28,1.026367,0.809555,22.701157,830.590479
3.29,1.026373,0.809532,22.7011,830.571999
3.3,1.026379,0.809509,22.701132,830.553387
3.31,1.026385,0.809486,22.70125,830.534706
3.32,1.026392,0.809463,22.701451,830.516018
3.33,1.026398,0.80944,22.701733,830.497383
3.34,1.026405,0.809417,22.702091,830.478863
3.35,1.026411,0.809394,22.702522,830.460516
3.36,1.026418,0.809371,22.703023,830.442399
3.37,1.026425,0.809348,22.703588,830.424568
3.38,1.026431,0.809326,22.704214,830.407078
3.39,1.026438,0.809304,22.704897,830.38998
3.4,1.026445,0.809282,22.705632,830.373325
3.41,1.026452,0.809261,22.706413,830.35716
3.42,1.026458,0.809241,22.707237,830.34153
3.43,1.026465,0.809221,22.708098,830.326479
3.44,1.026471,0.809202,22.708991,830.312047
3.45,1.026478,0.809184,22.709912,830.298271
3.46,1.026484,0.809166,22.710854,830.285186
3.47,1.02649,0.809149,22.711814,830.272825
3.48,1.026496,0.809133,22.712786,830.261215
3.49,1.026502,0.809118,22.713765,830.250384
3.5,1.026507,0.809104,22.714745,830.240353
3.51,1.026513,0.809091,22.715724,830.231143
3.52,1.026518,0.809079,22.716694,830.222771
3.53,1.026523,0.809067,22.717652,830.215249
3.54,1.026528,0.809057,22.718594,830.208589
3.55,1.026532,0.809048,22.719514,830.202797
3.56,1.026536,0.80904,22.720409,830.197878
3.57,1.02654,0.809033,22.721274,830.193832
3.58,1.026544,0.809027,22.722106,830.190659
3.59,1.026548,0.809022,22.722901,830.188352
3.6,1.026551,0.809018,22.723655,830.186905
3.61,1.026554,0.809015,22.724366,830.186306
3.62,1.026557,0.809013,22.72503,830.186542
3.63,1.026559,0.809012,22.725644,830.187597
3.64,1.026561,0.809012,22.726206,830.189452
3.65,1.026563,0.809013,22.726714,830.192085
3.66,1.026565,0.809015,22.727166,830.195474
3.67,1.026567,0.809018,22.727559,830.199593
3.68,1.026568,0.809022,22.727893,830.204413
3.69,1.026569,0.809026,22.728166,830.209905
3.7,1.026569,0.809032,22.728378,830.216037
3.71,1.02657,0.809038,22.728527,830.222775
3.72,1.02657,0.809045,22.728613,830.230085
3.73,1.02657,0.809053,22.728637,830.237929
3.74,1.026569,0.809061,22.728598,830.246272
3.75,1.026569,0.80907,22.728496,830.255073
3.76,1.026568,0.80908,22.728333,830.264293
3.77,1.026567,0.80909,22.728109,830.273892
3.78,1.026566,0.8091,22.727826,830.283828
3.79,1.026565,0.809111,22.727484,830.29406
3.8,1.026563,0.809123,22.727085,830.304547
3.81,1.026561,0.809134,22.726632,830.315246
3.82,1.02656,0.809146,22.726126,830.326115
3.83,1.026558,0.809159,22.725569,830.337113
3.84,1.026556,0.809171,22.724965,830.348199
3.85,1.026553,0.809184,22.724314,830.359331
3.86,1.026551,0.809196,22.723621,830.370469
3.87,1.026549,0.809209,22.722888,830.381574
3.88,1.026546,0.809222,22.722118,830.392607
3.89,1.026544,0.809234,22.721314,830.403531
3.9,1.026541,0.809247,22.720479,830.414309
3.91,1.026538,0.809259,22.719617,830.424906
3.92,1.026536,0.809271,22.718732,830.435288
3.93,1.026533,0.809283,22.717826,830.445424
3.94,1.02653,0.809295,22.716903,830.455282
3.95,1.026527,0.809307,22.715966,830.464834
3.96,1.026525,0.809318,22.71502,830.474052
3.97,1.026522,0.809329,22.714067,830.482912
3.98,1.026519,0.809339,22.713112,830.491389
3.99,1.026516,0.809349,22.712158,830.499463
4,1.026514,0.809359,22.711207,830.507115
4.01,1.026511,0.809368,22.710265,830.514326
4.02,1.026508,0.809376,22.709333,830.521082
4.03,1.026506,0.809384,22.708416,830.52737
4.04,1.026504,0.809392,22.707516,830.533179
4.05,1.026501,0.809399,22.706637,830.538501
4.06,1.026499,0.809405,22.705781,830.543328
4.07,1.026497,0.809411,22.704951,830.547657
4.08,1.026495,0.809417,22.70415,830.551486
4.09,1.026493,0.809421,22.703381,830.554814
4.1,1.026491,0.809426,22.702645,830.557643
4.11,1.026489,0.809429,22.701945,830.559978
4.12,1.026487,0.809433,22.701283,830.561825
4.13,1.026485,0.809435,22.700661,830.563192
4.14,1.026484,0.809437,22.700081,830.564088
4.15,1.026482,0.809439,22.699543,830.564527
4.16,1.026481,0.80944,22.699049,830.56452
4.17,1.02648,0.80944,22.6986,830.564084
4.18,1.026479,0.80944,22.698197,830.563236
4.19,1.026478,0.80944,22.69784,830.561993
4.2,1.026477,0.809439,22.697531,830.560376
4.21,1.026476,0.809438,22.697268,830.558406
4.22,1.026475,0.809436,22.697052,830.556105
4.23,1.026475,0.809434,22.696884,830.553496
4.24,1.026474,0.809432,22.696761,830.550603
4.25,1.026474,0.809429,22.696684,830.547453
4.26,1.026473,0.809426,22.696652,830.544071
4.27,1.026473,0.809423,22.696664,830.540483
4.28,1.026473,0.809419,22.696718,830.536718
4.29,1.026473,0.809416,22.696814,830.532802
4.3,1.026472,0.809412,22.696948,830.528763
4.31,1.026472,0.809408,22.697121,830.524629
4.32,1.026472,0.809404,22.697328,830.52043
4.33,1.026472,0.8094,22.69757,830.516191
4.34,1.026472,0.809396,22.697843,830.511942
4.35,1.026472,0.809391,22.698144,830.50771
4.36,1.026472,0.809387,22.698472,830.503521
4.37,1.026472,0.809383,22.698823,830.499403
4.38,1.026472,0.809379,22.699196,830.495382
4.39,1.026472,0.809376,22.699586,830.491482
4.4,1.026472,0.809372,22.699991,830.487728
4.41,1.026472,0.809368,22.700409,830.484143
4.42,1.026472,0.809365,22.700835,830.48075
4.43,1.026472,0.809362,22.701267,830.47757
4.44,1.026472,0.809359,22.701701,830.474623
4.45,1.026472,0.809357,22.702135,830.471928
4.46,1.026472,0.809354,22.702566,830.469502
4.47,1.026472,0.809353,22.702989,830.467362
