b:tnow in s,s:ut in p.u.,s:cur1 in p.u.,s:Q1 in Mvar,s:P1 in MW
0,0.9831,0.866652,205.144371,650
0.01,0.982899,0.867713,205.312387,650.675482
0.02,0.982899,0.867697,205.304288,650.665249
0.03,0.982898,0.86768,205.297292,650.653232
0.04,0.982898,0.867661,205.290667,650.639494
0.05,0.982898,0.867641,205.284305,650.624441
0.06,0.982898,0.867619,205.278194,650.608308
0.07,0.982898,0.867596,205.272354,650.591221
0.08,0.982899,0.867571,205.266809,650.573256
0.09,0.9829,0.867545,205.261577,650.554465
0.1,0.982901,0.867519,205.256668,650.534889
0.11,0.982902,0.867491,205.252083,650.51457
0.12,0.982904,0.867462,205.247817,650.493554
0.13,0.982906,0.867433,205.243859,650.471891
0.14,0.982908,0.867403,205.240198,650.449639
0.15,0.982911,0.867372,205.236816,650.426858
0.16,0.982913,0.86734,205.233698,650.403615
0.17,0.982916,0.867308,205.230828,650.379984
0.18,0.982918,0.867276,205.228188,650.356038
0.19,0.982921,0.867243,205.225763,650.331858
0.2,0.982924,0.86721,205.223538,650.307525
0.21,0.982927,0.867177,205.221498,650.283123
0.22,0.98293,0.867144,205.21963,650.258735
0.23,0.982933,0.867111,205.217922,650.23445
0.24,0.982936,0.867079,205.216361,650.210351
0.25,0.982939,0.867046,205.214937,650.186526
0.26,0.982942,0.867015,205.21364,650.163058
0.27,0.982946,0.866984,205.21246,650.140032
0.28,0.982949,0.866953,205.211387,650.11753
0.29,0.982952,0.866923,205.210413,650.09563
0.3,0.982955,0.866895,205.209531,650.07441
0.31,0.982958,0.866867,205.208732,650.053944
0.32,0.982961,0.86684,205.208009,650.034302
0.33,0.982964,0.866814,205.207355,650.015552
0.34,0.982967,0.86679,205.206763,649.997755
0.35,0.98297,0.866767,205.206228,649.980971
0.36,0.982973,0.866745,205.205742,649.965253
0.37,0.982976,0.866725,205.205301,649.950651
0.38,0.982978,0.866706,205.204898,649.937209
0.39,0.982981,0.866689,205.204528,649.924966
0.4,0.982983,0.866673,205.204185,649.913956
0.41,0.982986,0.866659,205.203865,649.904207
0.42,0.982988,0.866647,205.203562,649.895742
0.43,0.98299,0.866636,205.203273,649.888579
0.44,0.982992,0.866627,205.202993,649.88273
0.45,0.982994,0.86662,205.202717,649.8782
0.46,0.982995,0.866615,205.202441,649.874991
0.47,0.982997,0.866611,205.202163,649.873097
0.48,0.982998,0.866609,205.201878,649.872509
0.49,0.982999,0.866608,205.201582,649.873211
0.5,0.983001,0.86661,205.201274,649.875181
0.51,0.983001,0.866613,205.200951,649.878394
0.52,0.983002,0.866617,205.200609,649.88282
0.53,0.983003,0.866623,205.200247,649.888421
0.54,0.983003,0.866631,205.199863,649.895159
0.55,0.983004,0.86664,205.199454,649.902989
0.56,0.983004,0.86665,205.19902,649.911862
0.57,0.983004,0.866662,205.19856,649.921726
0.58,0.983004,0.866675,205.198072,649.932524
0.59,0.983004,0.866689,205.197557,649.944199
0.6,0.983003,0.866704,205.197013,649.956686
0.61,0.983003,0.866721,205.196441,649.969922
0.62,0.983002,0.866738,205.195841,649.983839
0.63,0.983002,0.866756,205.195213,649.998368
0.64,0.983001,0.866775,205.194559,650.013437
0.65,0.983,0.866794,205.19388,650.028975
0.66,0.982999,0.866814,205.193176,650.044909
0.67,0.982998,0.866834,205.192449,650.061162
0.68,0.982997,0.866855,205.191702,650.077662
0.69,0.982995,0.866876,205.190935,650.094334
0.7,0.982994,0.866897,205.190152,650.111103
0.71,0.982993,0.866919,205.189354,650.127896
0.72,0.982991,0.86694,205.188544,650.144639
0.73,0.98299,0.866961,205.187725,650.161262
0.74,0.982988,0.866982,205.1869,650.177694
0.75,0.982987,0.867003,205.186072,650.193868
0.76,0.982985,0.867023,205.185243,650.209716
0.77,0.982983,0.867043,205.184417,650.225177
0.78,0.982982,0.867062,205.183597,650.240187
0.79,0.98298,0.867081,205.182787,650.254691
0.8,0.982979,0.867099,205.181991,650.268632
0.81,0.982977,0.867116,205.18121,650.281959
0.82,0.982975,0.867132,205.180449,650.294623
0.83,0.982974,0.867148,205.179712,650.306581
0.84,0.982972,0.867163,205.179001,650.317791
0.85,0.982971,0.867176,205.17832,650.328217
0.86,0.98297,0.867189,205.177672,650.337827
0.87,0.982968,0.867201,205.17706,650.346591
0.88,0.982967,0.867211,205.176488,650.354487
0.89,0.982965,0.867221,205.175958,650.361493
0.9,0.982964,0.867229,205.175473,650.367595
0.91,0.982963,0.867236,205.175036,650.372781
0.92,0.982962,0.867242,205.174649,650.377045
0.93,0.982961,0.867247,205.174315,650.380384
0.94,0.98296,0.867251,205.174035,650.3828
0.95,0.982959,0.867253,205.173812,650.384299
0.96,0.982958,0.867254,205.173648,650.384892
0.97,0.982958,0.867255,205.173543,650.384592
0.98,0.982957,0.867254,205.173499,650.383419
0.99,0.982956,0.867252,205.173517,650.381393
1,0.982956,0.867249,205.173597,650.378542
1.01,0.982956,0.867245,205.173741,650.374893
1.02,0.982955,0.86724,205.173949,650.370479
1.03,0.982955,0.867234,205.174219,650.365336
1.04,0.982955,0.867227,205.174553,650.359503
1.05,0.982955,0.86722,205.17495,650.35302
1.06,0.982955,0.867211,205.175408,650.345931
1.07,0.982955,0.867202,205.175927,650.338282
1.08,0.982955,0.867192,205.176505,650.330121
1.09,0.982955,0.867182,205.177141,650.321498
1.1,0.982955,0.867171,205.177832,650.312464
1.11,0.982955,0.86716,205.178578,650.30307
1.12,0.982955,0.867148,205.179375,650.293371
1.13,0.982956,0.867136,205.180221,650.283421
1.14,0.982956,0.867124,205.181113,650.273273
1.15,0.982956,0.867111,205.182049,650.262984
1.16,0.982957,0.867099,205.183024,650.252607
1.17,0.982957,0.867086,205.184037,650.242197
1.18,0.982958,0.867074,205.185083,650.231807
1.19,0.982958,0.867061,205.186158,650.221491
1.2,0.982959,0.867049,205.18726,650.211301
1.21,0.982959,0.867037,205.188383,650.201288
1.22,0.98296,0.867025,205.189525,650.1915
1.23,0.98296,0.867013,205.190681,650.181985
1.24,0.982961,0.867002,205.191846,650.172789
1.25,0.982961,0.866991,205.193018,650.163956
1.26,0.982962,0.866981,205.194191,650.155526
1.27,0.982962,0.866971,205.195361,650.147539
1.28,0.982963,0.866962,205.196525,650.14003
1.29,0.982963,0.866954,205.197677,650.133034
1.3,0.982964,0.866946,205.198814,650.126581
1.31,0.982964,0.866939,205.199931,650.120698
1.32,0.982964,0.866933,205.201026,650.115411
1.33,0.982965,0.866927,205.202093,650.110741
1.34,0.982965,0.866923,205.203128,650.106705
1.35,0.982965,0.866919,205.204129,650.103321
1.36,0.982965,0.866916,205.205091,650.100598
1.37,0.982965,0.866913,205.206011,650.098546
1.38,0.982965,0.866912,205.206885,650.09717
1.39,0.982965,0.866911,205.207711,650.096472
1.4,0.982966,0.866912,205.208486,650.096451
1.41,0.982965,0.866913,205.209207,650.097102
1.42,0.982965,0.866915,205.209871,650.098417
1.43,0.982965,0.866917,205.210476,650.100386
1.44,0.982965,0.866921,205.21102,650.102995
1.45,0.982965,0.866925,205.211501,650.106228
1.46,0.982965,0.86693,205.211917,650.110065
1.47,0.982964,0.866936,205.212267,650.114484
1.48,0.982964,0.866942,205.212551,650.119461
1.49,0.982964,0.866949,205.212766,650.124969
1.5,0.982963,0.866957,205.212913,650.130977
1.51,0.982963,0.866965,205.212991,650.137456
1.52,0.982962,0.866974,205.213,650.144372
1.53,0.982962,0.866983,205.21294,650.151691
1.54,0.982962,0.866993,205.212811,650.159374
1.55,0.982961,0.867003,205.212614,650.167386
1.56,0.982961,0.867014,205.212351,650.175687
1.57,0.98296,0.867024,205.212021,650.184236
1.58,0.982959,0.867035,205.211627,650.192994
1.59,0.982959,0.867046,205.211169,650.201919
1.6,0.982958,0.867058,205.210651,650.210968
1.61,0.982958,0.867069,205.210073,650.220101
1.62,0.982957,0.86708,205.209437,650.229275
1.63,0.982957,0.867092,205.208748,650.238448
1.64,0.982956,0.867103,205.208006,650.247579
1.65,0.982956,0.867114,205.207214,650.256627
1.66,0.982955,0.867125,205.206376,650.265552
1.67,0.982955,0.867135,205.205495,650.274315
1.68,0.982955,0.867146,205.204573,650.282878
1.69,0.982954,0.867156,205.203614,650.291204
1.7,0.982954,0.867166,205.202622,650.299256
1.71,0.982954,0.867175,205.201599,650.307002
1.72,0.982954,0.867184,205.20055,650.314409
1.73,0.982953,0.867192,205.199477,650.321447
1.74,0.982953,0.8672,205.198386,650.328087
1.75,0.982953,0.867207,205.197278,650.334303
1.76,0.982953,0.867213,205.196159,650.340069
1.77,0.982953,0.867219,205.195032,650.345365
1.78,0.982953,0.867224,205.1939,650.35017
1.79,0.982954,0.867229,205.192768,650.354466
1.8,0.982954,0.867233,205.191638,650.358239
1.81,0.982954,0.867236,205.190516,650.361476
1.82,0.982954,0.867239,205.189403,650.364166
1.83,0.982955,0.867241,205.188305,650.366302
1.84,0.982955,0.867242,205.187223,650.367879
1.85,0.982956,0.867242,205.186162,650.368894
1.86,0.982957,0.867241,205.185125,650.369347
1.87,0.982957,0.86724,205.184115,650.36924
1.88,0.982958,0.867238,205.183135,650.368579
1.89,0.982959,0.867236,205.182188,650.367369
1.9,0.98296,0.867233,205.181277,650.36562
1.91,0.982961,0.867229,205.180403,650.363344
1.92,0.982962,0.867224,205.179571,650.360556
1.93,0.982963,0.867219,205.178781,650.35727
1.94,0.982964,0.867213,205.178037,650.353505
1.95,0.982965,0.867206,205.177339,650.349281
1.96,0.982967,0.867199,205.17669,650.344619
1.97,0.982968,0.867192,205.176092,650.339543
1.98,0.982969,0.867184,205.175545,650.334078
1.99,0.982971,0.867175,205.175052,650.32825
2,0.982972,0.867166,205.174613,650.322086
2.01,0.982974,0.867157,205.174228,650.315617
2.02,0.982975,0.867148,205.1739,650.308871
2.03,0.982977,0.867138,205.173627,650.30188
2.04,0.982978,0.867127,205.173411,650.294675
2.05,0.98298,0.867117,205.173251,650.287289
2.06,0.982981,0.867106,205.173149,650.279753
2.07,0.982983,0.867096,205.173102,650.272103
2.08,0.982985,0.867085,205.173112,650.26437
2.09,0.982986,0.867074,205.173177,650.256587
2.1,0.982988,0.867063,205.173296,650.24879
2.11,0.98299,0.867052,205.17347,650.241009
2.12,0.982991,0.867042,205.173697,650.233278
2.13,0.982993,0.867031,205.173975,650.225629
2.14,0.982994,0.867021,205.174304,650.218094
2.15,0.982996,0.867011,205.174682,650.210703
2.16,0.982997,0.867001,205.175108,650.203487
2.17,0.982999,0.866991,205.17558,650.196473
2.18,0.983,0.866982,205.176096,650.189691
2.19,0.983002,0.866973,205.176654,650.183166
2.2,0.983003,0.866964,205.177254,650.176924
2.21,0.983005,0.866956,205.177891,650.170989
2.22,0.983006,0.866948,205.178566,650.165383
2.23,0.983007,0.866941,205.179275,650.160128
2.24,0.983008,0.866934,205.180016,650.155242
2.25,0.983009,0.866928,205.180787,650.150743
2.26,0.98301,0.866923,205.181587,650.146647
2.27,0.983011,0.866918,205.182412,650.142968
2.28,0.983012,0.866913,205.18326,650.139719
2.29,0.983013,0.866909,205.18413,650.13691
2.3,0.983014,0.866906,205.185018,650.134549
2.31,0.983015,0.866903,205.185923,650.132643
2.32,0.983015,0.866901,205.186843,650.131198
2.33,0.983016,0.8669,205.187775,650.130216
2.34,0.983017,0.866899,205.188716,650.129698
2.35,0.983017,0.866899,205.189666,650.129643
2.36,0.983017,0.8669,205.190622,650.13005
2.37,0.983018,0.866901,205.191581,650.130913
2.38,0.983018,0.866903,205.192543,650.132227
2.39,0.983018,0.866905,205.193504,650.133984
2.4,0.983018,0.866908,205.194463,650.136174
2.41,0.983018,0.866912,205.195418,650.138787
2.42,0.983018,0.866916,205.196368,650.141809
2.43,0.983018,0.86692,205.197312,650.145227
2.44,0.983018,0.866925,205.198246,650.149026
2.45,0.983017,0.866931,205.199171,650.153189
2.46,0.983017,0.866937,205.200084,650.157697
2.47,0.983017,0.866944,205.200984,650.162533
2.48,0.983016,0.866951,205.201871,650.167676
2.49,0.983016,0.866958,205.202743,650.173105
2.5,0.983015,0.866966,205.203599,650.178797
2.51,0.983014,0.866974,205.204439,650.184732
2.52,0.983014,0.866982,205.205261,650.190885
2.53,0.983013,0.866991,205.206064,650.197232
2.54,0.983012,0.867,205.206849,650.20375
2.55,0.983011,0.867009,205.207615,650.210414
2.56,0.983011,0.867018,205.208361,650.217199
2.57,0.98301,0.867028,205.209087,650.22408
2.58,0.983009,0.867037,205.209792,650.231032
2.59,0.983008,0.867047,205.210478,650.238031
2.6,0.983007,0.867057,205.211143,650.245051
2.61,0.983006,0.867066,205.211787,650.252068
2.62,0.983005,0.867076,205.212411,650.259059
2.63,0.983004,0.867085,205.213014,650.265999
2.64,0.983002,0.867095,205.213598,650.272865
2.65,0.983001,0.867104,205.214162,650.279635
2.66,0.983,0.867114,205.214706,650.286287
2.67,0.982999,0.867123,205.215232,650.2928
2.68,0.982998,0.867132,205.215739,650.299153
2.69,0.982997,0.86714,205.216228,650.305328
2.7,0.982996,0.867149,205.216699,650.311306
2.71,0.982995,0.867157,205.217154,650.31707
2.72,0.982994,0.867165,205.217592,650.322603
2.73,0.982993,0.867172,205.218015,650.327891
2.74,0.982992,0.867179,205.218422,650.332919
2.75,0.982991,0.867186,205.218815,650.337675
2.76,0.98299,0.867192,205.219195,650.342148
2.77,0.982989,0.867198,205.219562,650.346327
2.78,0.982988,0.867204,205.219917,650.350203
2.79,0.982987,0.867209,205.22026,650.353769
2.8,0.982986,0.867214,205.220592,650.357019
2.81,0.982985,0.867219,205.220915,650.359948
2.82,0.982984,0.867223,205.221228,650.362551
2.83,0.982984,0.867226,205.221532,650.364828
2.84,0.982983,0.867229,205.221828,650.366776
2.85,0.982982,0.867232,205.222117,650.368396
2.86,0.982982,0.867234,205.222399,650.369689
2.87,0.982981,0.867236,205.222676,650.370659
2.88,0.98298,0.867237,205.222946,650.371309
2.89,0.98298,0.867238,205.223211,650.371645
2.9,0.98298,0.867239,205.223472,650.371673
2.91,0.982979,0.867239,205.223729,650.371399
2.92,0.982979,0.867239,205.223982,650.370834
2.93,0.982978,0.867238,205.224231,650.369985
2.94,0.982978,0.867237,205.224478,650.368863
2.95,0.982978,0.867236,205.224722,650.36748
2.96,0.982978,0.867234,205.224963,650.365848
2.97,0.982978,0.867232,205.225202,650.363979
2.98,0.982978,0.867229,205.225439,650.361887
2.99,0.982977,0.867227,205.225675,650.359585
3,0.982977,0.867224,205.225908,650.35709
3.01,0.982978,0.867221,205.226139,650.354415
3.02,0.982978,0.867217,205.226369,650.351576
3.03,0.982978,0.867214,205.226596,650.34859
3.04,0.982978,0.86721,205.226822,650.345472
3.05,0.982978,0.867206,205.227045,650.34224
3.06,0.982978,0.867202,205.227266,650.338908
3.07,0.982978,0.867197,205.227485,650.335495
3.08,0.982979,0.867193,205.227701,650.332017
3.09,0.982979,0.867189,205.227914,650.328491
3.1,0.982979,0.867184,205.228124,650.324932
3.11,0.98298,0.867179,205.22833,650.321357
3.12,0.98298,0.867175,205.228533,650.317782
3.13,0.982981,0.86717,205.228731,650.314223
3.14,0.982981,0.867166,205.228924,650.310696
3.15,0.982981,0.867161,205.229113,650.307214
3.16,0.982982,0.867157,205.229296,650.303792
3.17,0.982982,0.867152,205.229474,650.300445
3.18,0.982983,0.867148,205.229645,650.297185
3.19,0.982983,0.867144,205.22981,650.294025
3.2,0.982984,0.86714,205.229968,650.290978
3.21,0.982984,0.867136,205.230118,650.288053
3.22,0.982985,0.867132,205.230261,650.285262
3.23,0.982986,0.867128,205.230396,650.282615
3.24,0.982986,0.867125,205.230522,650.280119
3.25,0.982987,0.867121,205.23064,650.277785
3.26,0.982987,0.867118,205.230748,650.275617
3.27,0.982988,0.867115,205.230847,650.273624
3.28,0.982988,0.867113,205.230936,650.271811
3.29,0.982989,0.86711,205.231016,650.270182
3.3,0.982989,0.867108,205.231085,650.26874
3.31,0.98299,0.867106,205.231143,650.26749
3.32,0.98299,0.867104,205.231192,650.266432
3.33,0.982991,0.867103,205.231229,650.265568
3.34,0.982991,0.867102,205.231256,650.264898
3.35,0.982992,0.867101,205.231273,650.264422
3.36,0.982992,0.8671,205.231278,650.264138
3.37,0.982993,0.867099,205.231273,650.264044
3.38,0.982993,0.867099,205.231257,650.264136
3.39,0.982994,0.867099,205.231231,650.264412
3.4,0.982994,0.867099,205.231194,650.264866
3.41,0.982995,0.8671,205.231148,650.265493
3.42,0.982995,0.8671,205.231091,650.266288
3.43,0.982996,0.867101,205.231025,650.267244
3.44,0.982996,0.867102,205.23095,650.268354
3.45,0.982996,0.867103,205.230866,650.26961
3.46,0.982997,0.867104,205.230774,650.271003
3.47,0.982997,0.867106,205.230674,650.272527
3.48,0.982997,0.867108,205.230566,650.27417
3.49,0.982998,0.867109,205.230452,650.275925
3.5,0.982998,0.867111,205.230332,650.277781
3.51,0.982998,0.867113,205.230206,650.279728
3.52,0.982999,0.867115,205.230075,650.281756
3.53,0.982999,0.867118,205.22994,650.283855
3.54,0.982999,0.86712,205.229801,650.286014
3.55,0.982999,0.867122,205.22966,650.288223
3.56,0.983,0.867125,205.229516,650.290471
3.57,0.983,0.867127,205.229372,650.292747
3.58,0.983,0.86713,205.229227,650.295042
3.59,0.983,0.867133,205.229083,650.297343
3.6,0.983,0.867135,205.22894,650.299642
3.61,0.983001,0.867138,205.2288,650.301928
3.62,0.983001,0.86714,205.228662,650.304191
3.63,0.983001,0.867143,205.228529,650.306423
3.64,0.983001,0.867145,205.2284,650.308613
3.65,0.983001,0.867148,205.228277,650.310752
3.66,0.983001,0.86715,205.228161,650.312833
3.67,0.983002,0.867152,205.228052,650.314847
3.68,0.983002,0.867154,205.227952,650.316788
3.69,0.983002,0.867156,205.227861,650.318646
3.7,0.983002,0.867158,205.22778,650.320417
3.71,0.983002,0.86716,205.227709,650.322094
3.72,0.983002,0.867162,205.22765,650.323672
3.73,0.983003,0.867164,205.227604,650.325145
3.74,0.983003,0.867165,205.227571,650.326509
3.75,0.983003,0.867167,205.227551,650.327762
3.76,0.983003,0.867168,205.227546,650.328898
3.77,0.983003,0.867169,205.227556,650.329917
3.78,0.983003,0.86717,205.227582,650.330816
3.79,0.983003,0.867171,205.227624,650.331594
3.8,0.983003,0.867171,205.227682,650.33225
3.81,0.983004,0.867172,205.227758,650.332785
3.82,0.983004,0.867172,205.227852,650.333198
3.83,0.983004,0.867173,205.227963,650.333491
3.84,0.983004,0.867173,205.228093,650.333666
3.85,0.983004,0.867173,205.228241,650.333725
3.86,0.983004,0.867173,205.228408,650.333671
3.87,0.983004,0.867173,205.228594,650.333507
3.88,0.983005,0.867172,205.228799,650.333237
3.89,0.983005,0.867172,205.229023,650.332866
3.9,0.983005,0.867171,205.229266,650.332399
3.91,0.983005,0.86717,205.229528,650.33184
3.92,0.983005,0.86717,205.229809,650.331196
3.93,0.983005,0.867169,205.230109,650.330473
3.94,0.983005,0.867168,205.230428,650.329677
3.95,0.983005,0.867167,205.230764,650.328814
3.96,0.983005,0.867166,205.231119,650.327892
3.97,0.983006,0.867165,205.231491,650.326919
3.98,0.983006,0.867163,205.23188,650.325901
3.99,0.983006,0.867162,205.232285,650.324847
4,0.983006,0.867161,205.232707,650.323763
4.01,0.983006,0.86716,205.233144,650.322658
4.02,0.983006,0.867159,205.233597,650.321541
4.03,0.983006,0.867157,205.234063,650.320418
4.04,0.983006,0.867156,205.234543,650.319298
4.05,0.983006,0.867155,205.235036,650.318189
4.06,0.983006,0.867154,205.23554,650.317099
4.07,0.983006,0.867153,205.236056,650.316035
4.08,0.983006,0.867152,205.236582,650.315004
4.09,0.983006,0.867151,205.237118,650.314016
4.1,0.983006,0.86715,205.237663,650.313075
4.11,0.983006,0.867149,205.238215,650.31219
4.12,0.983006,0.867148,205.238773,650.311367
4.13,0.983006,0.867147,205.239338,650.310613
4.14,0.983006,0.867147,205.239907,650.309933
4.15,0.983006,0.867146,205.24048,650.309333
4.16,0.983006,0.867146,205.241056,650.308819
4.17,0.983006,0.867146,205.241634,650.308394
4.18,0.983006,0.867146,205.242212,650.308065
4.19,0.983005,0.867146,205.242791,650.307834
4.2,0.983005,0.867146,205.243368,650.307705
4.21,0.983005,0.867147,205.243944,650.307681
4.22,0.983005,0.867147,205.244516,650.307766
4.23,0.983005,0.867148,205.245084,650.307961
4.24,0.983004,0.867148,205.245647,650.308267
4.25,0.983004,0.867149,205.246204,650.308686
4.26,0.983004,0.86715,205.246755,650.309218
4.27,0.983004,0.867152,205.247298,650.309864
4.28,0.983003,0.867153,205.247832,650.310624
4.29,0.983003,0.867155,205.248356,650.311495
4.3,0.983003,0.867156,205.248871,650.312477
4.31,0.983002,0.867158,205.249375,650.313569
4.32,0.983002,0.86716,205.249867,650.314767
4.33,0.983002,0.867162,205.250346,650.316069
4.34,0.983001,0.867164,205.250813,650.317471
4.35,0.983001,0.867167,205.251265,650.318971
4.36,0.983001,0.867169,205.251704,650.320563
4.37,0.983,0.867172,205.252128,650.322244
