b:tnow in s,s:ut in p.u.,s:cur1 in p.u.,s:Q1 in Mvar,s:P1 in MW
0,1.0493,0.814622,212.411827,650
0.01,1.049189,0.81506,212.596286,650.250216
0.02,1.049185,0.815061,212.59063,650.249577
0.03,1.049182,0.81506,212.586023,650.248065
0.04,1.049179,0.815058,212.581752,650.246432
0.05,1.049178,0.815056,212.577781,650.24489
0.06,1.049176,0.815055,212.574079,650.243594
0.07,1.049175,0.815053,212.570621,650.242629
0.08,1.049174,0.815052,212.567385,650.242037
0.09,1.049173,0.815051,212.564352,650.241829
0.1,1.049172,0.815051,212.561505,650.241991
0.11,1.049172,0.815051,212.55883,650.242499
0.12,1.049172,0.815051,212.55631,650.243318
0.13,1.049171,0.815052,212.55393,650.244408
0.14,1.049171,0.815053,212.551676,650.245727
0.15,1.049171,0.815054,212.549533,650.247231
0.16,1.049171,0.815055,212.547486,650.248874
0.17,1.049171,0.815056,212.545522,650.250614
0.18,1.04917,0.815058,212.543627,650.252407
0.19,1.04917,0.815059,212.54179,650.254212
0.2,1.04917,0.81506,212.539998,650.25599
0.21,1.04917,0.815062,212.538242,650.257703
0.22,1.049171,0.815063,212.53651,650.259316
0.23,1.049171,0.815064,212.534794,650.260796
0.24,1.049171,0.815064,212.533087,650.26211
0.25,1.049171,0.815065,212.53138,650.263231
0.26,1.049171,0.815065,212.529668,650.264132
0.27,1.049172,0.815065,212.527945,650.264788
0.28,1.049172,0.815064,212.526207,650.265178
0.29,1.049172,0.815064,212.524449,650.265281
0.3,1.049173,0.815062,212.522669,650.265081
0.31,1.049173,0.815061,212.520863,650.264562
0.32,1.049174,0.815059,212.51903,650.263713
0.33,1.049175,0.815056,212.517169,650.262523
0.34,1.049175,0.815053,212.515278,650.260984
0.35,1.049176,0.815049,212.513357,650.25909
0.36,1.049177,0.815046,212.511406,650.256839
0.37,1.049178,0.815041,212.509426,650.25423
0.38,1.049179,0.815036,212.507418,650.251264
0.39,1.04918,0.815031,212.505382,650.247944
0.4,1.049181,0.815025,212.503321,650.244276
0.41,1.049182,0.815019,212.501237,650.240268
0.42,1.049183,0.815012,212.499132,650.23593
0.43,1.049185,0.815005,212.497008,650.231273
0.44,1.049186,0.814998,212.494868,650.22631
0.45,1.049187,0.81499,212.492715,650.221057
0.46,1.049189,0.814982,212.490553,650.21553
0.47,1.04919,0.814973,212.488385,650.209749
0.48,1.049192,0.814965,212.486214,650.203732
0.49,1.049193,0.814955,212.484044,650.197502
0.5,1.049195,0.814946,212.48188,650.19108
0.51,1.049197,0.814937,212.479724,650.18449
0.52,1.049198,0.814927,212.477581,650.177756
0.53,1.0492,0.814917,212.475456,650.170904
0.54,1.049202,0.814907,212.473352,650.16396
0.55,1.049203,0.814897,212.471274,650.156951
0.56,1.049205,0.814887,212.469227,650.149903
0.57,1.049207,0.814877,212.467213,650.142844
0.58,1.049208,0.814867,212.465238,650.135802
0.59,1.04921,0.814857,212.463306,650.128804
0.6,1.049212,0.814847,212.461421,650.121879
0.61,1.049213,0.814838,212.459587,650.115053
0.62,1.049215,0.814828,212.457809,650.108354
0.63,1.049216,0.814819,212.45609,650.101809
0.64,1.049218,0.81481,212.454434,650.095444
0.65,1.04922,0.814801,212.452846,650.089284
0.66,1.049221,0.814793,212.451328,650.083355
0.67,1.049223,0.814784,212.449885,650.07768
0.68,1.049224,0.814777,212.448519,650.072283
0.69,1.049225,0.814769,212.447234,650.067185
0.7,1.049227,0.814762,212.446033,650.062407
0.71,1.049228,0.814756,212.444918,650.057968
0.72,1.049229,0.81475,212.443893,650.053888
0.73,1.049231,0.814745,212.44296,650.050183
0.74,1.049232,0.81474,212.442121,650.046868
0.75,1.049233,0.814735,212.441377,650.043957
0.76,1.049234,0.814731,212.440732,650.041463
0.77,1.049235,0.814728,212.440186,650.039397
0.78,1.049235,0.814726,212.43974,650.037767
0.79,1.049236,0.814724,212.439395,650.036582
0.8,1.049237,0.814722,212.439153,650.035848
0.81,1.049238,0.814721,212.439014,650.035568
0.82,1.049238,0.814721,212.438977,650.035745
0.83,1.049239,0.814721,212.439044,650.036381
0.84,1.049239,0.814722,212.439213,650.037473
0.85,1.049239,0.814724,212.439485,650.039021
0.86,1.049239,0.814726,212.439858,650.04102
0.87,1.04924,0.814729,212.440331,650.043464
0.88,1.04924,0.814732,212.440902,650.046345
0.89,1.04924,0.814736,212.441572,650.049656
0.9,1.04924,0.814741,212.442337,650.053386
0.91,1.049239,0.814746,212.443195,650.057523
0.92,1.049239,0.814752,212.444144,650.062054
0.93,1.049239,0.814758,212.445182,650.066965
0.94,1.049238,0.814765,212.446306,650.072239
0.95,1.049238,0.814772,212.447512,650.077861
0.96,1.049237,0.814779,212.448798,650.083811
0.97,1.049237,0.814788,212.450161,650.090071
0.98,1.049236,0.814796,212.451595,650.096621
0.99,1.049236,0.814805,212.453099,650.10344
1,1.049235,0.814814,212.454667,650.110505
1.01,1.049234,0.814823,212.456296,650.117796
1.02,1.049233,0.814833,212.457981,650.125287
1.03,1.049232,0.814843,212.459718,650.132957
1.04,1.049231,0.814854,212.461503,650.14078
1.05,1.04923,0.814864,212.463331,650.148733
1.06,1.049229,0.814875,212.465196,650.156789
1.07,1.049228,0.814886,212.467095,650.164926
1.08,1.049227,0.814896,212.469022,650.173116
1.09,1.049226,0.814907,212.470973,650.181336
1.1,1.049224,0.814918,212.472942,650.189561
1.11,1.049223,0.814929,212.474924,650.197765
1.12,1.049222,0.81494,212.476915,650.205924
1.13,1.049221,0.814951,212.478909,650.214014
1.14,1.04922,0.814962,212.480901,650.222011
1.15,1.049218,0.814972,212.482887,650.229892
1.16,1.049217,0.814983,212.484861,650.237634
1.17,1.049216,0.814993,212.486819,650.245215
1.18,1.049215,0.815003,212.488756,650.252615
1.19,1.049213,0.815013,212.490667,650.259812
1.2,1.049212,0.815023,212.492547,650.266787
1.21,1.049211,0.815032,212.494392,650.273521
1.22,1.04921,0.815041,212.496198,650.279996
1.23,1.049209,0.815049,212.49796,650.286197
1.24,1.049207,0.815058,212.499675,650.292106
1.25,1.049206,0.815065,212.501339,650.297711
1.26,1.049205,0.815073,212.502947,650.302997
1.27,1.049204,0.81508,212.504496,650.307953
1.28,1.049203,0.815086,212.505984,650.312568
1.29,1.049202,0.815092,212.507406,650.316832
1.3,1.049201,0.815098,212.50876,650.320737
1.31,1.049201,0.815103,212.510043,650.324276
1.32,1.0492,0.815108,212.511254,650.327444
1.33,1.049199,0.815112,212.512389,650.330236
1.34,1.049198,0.815116,212.513446,650.332649
1.35,1.049198,0.815119,212.514424,650.334682
1.36,1.049197,0.815121,212.515322,650.336334
1.37,1.049197,0.815123,212.516138,650.337607
1.38,1.049196,0.815125,212.516871,650.338503
1.39,1.049196,0.815126,212.517521,650.339025
1.4,1.049196,0.815127,212.518086,650.339178
1.41,1.049195,0.815127,212.518567,650.338969
1.42,1.049195,0.815127,212.518965,650.338404
1.43,1.049195,0.815126,212.519278,650.337492
1.44,1.049195,0.815124,212.519508,650.336243
1.45,1.049195,0.815123,212.519655,650.334668
1.46,1.049195,0.81512,212.519721,650.332777
1.47,1.049195,0.815118,212.519707,650.330583
1.48,1.049196,0.815115,212.519613,650.328101
1.49,1.049196,0.815111,212.519443,650.325344
1.5,1.049196,0.815108,212.519198,650.322327
1.51,1.049197,0.815103,212.518879,650.319066
1.52,1.049197,0.815099,212.51849,650.315579
1.53,1.049198,0.815094,212.518032,650.311881
1.54,1.049198,0.815089,212.517509,650.307991
1.55,1.049199,0.815084,212.516923,650.303926
1.56,1.0492,0.815078,212.516278,650.299705
1.57,1.049201,0.815072,212.515576,650.295347
1.58,1.049201,0.815066,212.514821,650.290871
1.59,1.049202,0.81506,212.514015,650.286296
1.6,1.049203,0.815054,212.513163,650.28164
1.61,1.049204,0.815048,212.512269,650.276924
1.62,1.049205,0.815041,212.511335,650.272166
1.63,1.049206,0.815034,212.510366,650.267385
1.64,1.049207,0.815028,212.509365,650.2626
1.65,1.049208,0.815021,212.508336,650.25783
1.66,1.04921,0.815014,212.507283,650.253092
1.67,1.049211,0.815008,212.50621,650.248404
1.68,1.049212,0.815001,212.505121,650.243784
1.69,1.049213,0.814995,212.50402,650.239247
1.7,1.049215,0.814988,212.502909,650.23481
1.71,1.049216,0.814982,212.501794,650.230489
1.72,1.049217,0.814976,212.500678,650.226297
1.73,1.049218,0.81497,212.499565,650.222248
1.74,1.04922,0.814964,212.498457,650.218356
1.75,1.049221,0.814958,212.49736,650.214633
1.76,1.049222,0.814953,212.496276,650.21109
1.77,1.049224,0.814948,212.495208,650.207736
1.78,1.049225,0.814943,212.49416,650.204582
1.79,1.049226,0.814938,212.493135,650.201635
1.8,1.049228,0.814933,212.492136,650.198903
1.81,1.049229,0.814929,212.491165,650.196392
1.82,1.04923,0.814925,212.490226,650.194108
1.83,1.049232,0.814922,212.489321,650.192053
1.84,1.049233,0.814918,212.488452,650.190232
1.85,1.049234,0.814915,212.487622,650.188645
1.86,1.049236,0.814912,212.486833,650.187295
1.87,1.049237,0.81491,212.486086,650.186181
1.88,1.049238,0.814907,212.485384,650.185301
1.89,1.049239,0.814906,212.484728,650.184654
1.9,1.04924,0.814904,212.484119,650.184236
1.91,1.049242,0.814903,212.483558,650.184043
1.92,1.049243,0.814902,212.483048,650.184071
1.93,1.049244,0.814901,212.482587,650.184312
1.94,1.049245,0.8149,212.482179,650.18476
1.95,1.049246,0.8149,212.481822,650.185408
1.96,1.049247,0.8149,212.481517,650.186248
1.97,1.049248,0.8149,212.481265,650.187268
1.98,1.049249,0.814901,212.481065,650.188462
1.99,1.04925,0.814902,212.480918,650.189816
2,1.049251,0.814903,212.480823,650.191322
2.01,1.049252,0.814904,212.48078,650.192967
2.02,1.049253,0.814905,212.480788,650.194739
2.03,1.049254,0.814907,212.480847,650.196626
2.04,1.049254,0.814908,212.480957,650.198616
2.05,1.049255,0.81491,212.481115,650.200696
2.06,1.049256,0.814912,212.481321,650.202852
2.07,1.049257,0.814914,212.481575,650.205073
2.08,1.049257,0.814916,212.481875,650.207343
2.09,1.049258,0.814918,212.482219,650.209651
2.1,1.049259,0.814921,212.482607,650.211984
2.11,1.049259,0.814923,212.483037,650.214328
2.12,1.04926,0.814925,212.483507,650.216672
2.13,1.049261,0.814928,212.484016,650.219001
2.14,1.049261,0.81493,212.484563,650.221306
2.15,1.049262,0.814932,212.485146,650.223573
2.16,1.049262,0.814935,212.485764,650.225792
2.17,1.049263,0.814937,212.486414,650.227952
2.18,1.049263,0.814939,212.487095,650.230043
2.19,1.049264,0.814941,212.487806,650.232055
2.2,1.049264,0.814944,212.488545,650.233979
2.21,1.049265,0.814946,212.489311,650.235808
2.22,1.049265,0.814947,212.490101,650.237533
2.23,1.049265,0.814949,212.490915,650.239148
2.24,1.049266,0.814951,212.491751,650.240647
2.25,1.049266,0.814953,212.492607,650.242025
2.26,1.049266,0.814954,212.493482,650.243277
2.27,1.049267,0.814955,212.494375,650.2444
2.28,1.049267,0.814957,212.495285,650.24539
2.29,1.049267,0.814958,212.496209,650.246247
2.3,1.049268,0.814959,212.497148,650.246969
2.31,1.049268,0.814959,212.498101,650.247556
2.32,1.049268,0.81496,212.499065,650.248008
2.33,1.049269,0.814961,212.50004,650.248328
2.34,1.049269,0.814961,212.501026,650.248517
2.35,1.049269,0.814961,212.502021,650.248579
2.36,1.049269,0.814961,212.503025,650.248518
2.37,1.04927,0.814961,212.504038,650.248338
2.38,1.04927,0.814961,212.505058,650.248045
2.39,1.04927,0.814961,212.506086,650.247645
2.4,1.04927,0.814961,212.50712,650.247145
2.41,1.04927,0.81496,212.508162,650.246552
2.42,1.049271,0.81496,212.509209,650.245874
2.43,1.049271,0.814959,212.510263,650.245121
2.44,1.049271,0.814958,212.511323,650.2443
2.45,1.049271,0.814958,212.51239,650.243421
2.46,1.049271,0.814957,212.513462,650.242494
2.47,1.049271,0.814956,212.514541,650.24153
2.48,1.049271,0.814955,212.515626,650.240539
2.49,1.049272,0.814954,212.516718,650.239531
2.5,1.049272,0.814954,212.517817,650.238518
2.51,1.049272,0.814953,212.518922,650.23751
2.52,1.049272,0.814952,212.520035,650.236518
2.53,1.049272,0.814951,212.521156,650.235553
2.54,1.049272,0.814951,212.522285,650.234627
2.55,1.049272,0.81495,212.523422,650.23375
2.56,1.049272,0.81495,212.524568,650.232932
2.57,1.049272,0.814949,212.525723,650.232185
2.58,1.049272,0.814949,212.526887,650.231518
2.59,1.049272,0.814949,212.52806,650.230941
2.6,1.049271,0.814949,212.529244,650.230463
2.61,1.049271,0.814949,212.530438,650.230094
2.62,1.049271,0.814949,212.531643,650.229841
2.63,1.049271,0.81495,212.532858,650.229713
2.64,1.049271,0.81495,212.534084,650.229717
2.65,1.049271,0.814951,212.535322,650.229859
2.66,1.04927,0.814952,212.53657,650.230147
2.67,1.04927,0.814953,212.53783,650.230585
2.68,1.04927,0.814955,212.539101,650.231177
2.69,1.04927,0.814956,212.540382,650.231929
2.7,1.049269,0.814958,212.541675,650.232843
2.71,1.049269,0.81496,212.542979,650.233921
2.72,1.049269,0.814962,212.544293,650.235165
2.73,1.049268,0.814964,212.545617,650.236577
2.74,1.049268,0.814967,212.546951,650.238156
2.75,1.049267,0.81497,212.548294,650.239901
2.76,1.049267,0.814973,212.549645,650.24181
2.77,1.049267,0.814976,212.551005,650.243882
2.78,1.049266,0.814979,212.552372,650.246114
2.79,1.049266,0.814983,212.553745,650.248501
2.8,1.049265,0.814987,212.555124,650.251038
2.81,1.049265,0.814991,212.556508,650.25372
2.82,1.049264,0.814995,212.557895,650.256542
2.83,1.049264,0.814999,212.559284,650.259495
2.84,1.049263,0.815003,212.560675,650.262573
2.85,1.049262,0.815008,212.562067,650.265767
2.86,1.049262,0.815013,212.563457,650.269068
2.87,1.049261,0.815018,212.564844,650.272468
2.88,1.049261,0.815023,212.566228,650.275956
2.89,1.04926,0.815028,212.567607,650.279521
2.9,1.049259,0.815033,212.568979,650.283154
2.91,1.049259,0.815038,212.570342,650.286842
2.92,1.049258,0.815043,212.571696,650.290574
2.93,1.049258,0.815048,212.573038,650.294339
2.94,1.049257,0.815053,212.574368,650.298124
2.95,1.049256,0.815059,212.575683,650.301917
2.96,1.049256,0.815064,212.576981,650.305705
2.97,1.049255,0.815069,212.578262,650.309476
2.98,1.049255,0.815074,212.579524,650.313217
2.99,1.049254,0.815079,212.580764,650.316916
3,1.049254,0.815084,212.581982,650.320561
3.01,1.049253,0.815089,212.583175,650.324138
3.02,1.049253,0.815094,212.584343,650.327636
3.03,1.049252,0.815099,212.585483,650.331043
3.04,1.049252,0.815103,212.586595,650.334347
3.05,1.049251,0.815107,212.587676,650.337537
3.06,1.049251,0.815112,212.588726,650.340602
3.07,1.04925,0.815116,212.589744,650.343532
3.08,1.04925,0.815119,212.590727,650.346315
3.09,1.04925,0.815123,212.591675,650.348944
3.1,1.049249,0.815126,212.592586,650.351408
3.11,1.049249,0.81513,212.59346,650.353699
3.12,1.049249,0.815132,212.594296,650.35581
3.13,1.049249,0.815135,212.595093,650.357733
3.14,1.049248,0.815138,212.59585,650.359463
3.15,1.049248,0.81514,212.596567,650.360992
3.16,1.049248,0.815141,212.597243,650.362316
3.17,1.049248,0.815143,212.597877,650.363432
3.18,1.049248,0.815144,212.59847,650.364334
3.19,1.049248,0.815145,212.599021,650.365021
3.2,1.049248,0.815146,212.59953,650.365491
3.21,1.049248,0.815146,212.599997,650.365742
3.22,1.049248,0.815147,212.600422,650.365774
3.23,1.049248,0.815146,212.600806,650.365588
3.24,1.049249,0.815146,212.601149,650.365185
3.25,1.049249,0.815145,212.601451,650.364566
3.26,1.049249,0.815144,212.601714,650.363736
3.27,1.049249,0.815143,212.601937,650.362697
3.28,1.04925,0.815141,212.602122,650.361453
3.29,1.04925,0.815139,212.60227,650.360011
3.3,1.04925,0.815137,212.602381,650.358375
3.31,1.049251,0.815135,212.602458,650.356552
3.32,1.049251,0.815132,212.6025,650.35455
3.33,1.049252,0.815129,212.602511,650.352376
3.34,1.049252,0.815126,212.602491,650.350039
3.35,1.049253,0.815123,212.602441,650.347547
3.36,1.049254,0.815119,212.602364,650.344911
3.37,1.049254,0.815116,212.602261,650.34214
3.38,1.049255,0.815112,212.602135,650.339244
3.39,1.049256,0.815108,212.601986,650.336236
3.4,1.049256,0.815104,212.601818,650.333125
3.41,1.049257,0.8151,212.601631,650.329924
3.42,1.049258,0.815095,212.601429,650.326645
3.43,1.049258,0.815091,212.601213,650.323299
3.44,1.049259,0.815086,212.600985,650.319899
3.45,1.04926,0.815082,212.600748,650.316457
3.46,1.049261,0.815077,212.600504,650.312987
3.47,1.049262,0.815072,212.600255,650.3095
3.48,1.049263,0.815068,212.600004,650.306009
3.49,1.049263,0.815063,212.599753,650.302527
3.5,1.049264,0.815058,212.599503,650.299067
3.51,1.049265,0.815054,212.599258,650.29564
3.52,1.049266,0.815049,212.59902,650.292259
3.53,1.049267,0.815044,212.59879,650.288935
3.54,1.049268,0.81504,212.598571,650.285681
3.55,1.049269,0.815036,212.598366,650.282507
3.56,1.049269,0.815031,212.598176,650.279425
3.57,1.04927,0.815027,212.598003,650.276445
3.58,1.049271,0.815023,212.59785,650.273578
3.59,1.049272,0.81502,212.597718,650.270832
3.6,1.049273,0.815016,212.597609,650.268218
3.61,1.049274,0.815012,212.597525,650.265744
3.62,1.049274,0.815009,212.597468,650.263417
3.63,1.049275,0.815006,212.597439,650.261246
3.64,1.049276,0.815003,212.597441,650.259238
3.65,1.049277,0.815001,212.597473,650.257398
3.66,1.049277,0.814998,212.597539,650.255732
3.67,1.049278,0.814996,212.597638,650.254245
3.68,1.049279,0.814994,212.597773,650.252942
3.69,1.049279,0.814992,212.597944,650.251826
3.7,1.04928,0.814991,212.598152,650.250901
3.71,1.049281,0.81499,212.598398,650.250167
3.72,1.049281,0.814989,212.598682,650.249627
3.73,1.049282,0.814988,212.599006,650.249282
3.74,1.049282,0.814988,212.59937,650.249131
3.75,1.049283,0.814987,212.599773,650.249175
3.76,1.049283,0.814988,212.600218,650.249411
3.77,1.049284,0.814988,212.600702,650.249838
3.78,1.049284,0.814988,212.601227,650.250454
3.79,1.049284,0.814989,212.601792,650.251255
3.8,1.049285,0.81499,212.602398,650.252237
3.81,1.049285,0.814992,212.603043,650.253396
3.82,1.049285,0.814993,212.603728,650.254727
3.83,1.049285,0.814995,212.604451,650.256225
3.84,1.049286,0.814997,212.605213,650.257882
3.85,1.049286,0.814999,212.606012,650.259693
3.86,1.049286,0.815002,212.606848,650.261651
3.87,1.049286,0.815004,212.60772,650.263748
3.88,1.049286,0.815007,212.608626,650.265976
3.89,1.049286,0.81501,212.609565,650.268328
3.9,1.049286,0.815013,212.610537,650.270793
3.91,1.049286,0.815016,212.61154,650.273365
3.92,1.049286,0.81502,212.612573,650.276032
3.93,1.049286,0.815023,212.613634,650.278787
3.94,1.049286,0.815027,212.614722,650.281619
3.95,1.049286,0.815031,212.615835,650.28452
3.96,1.049286,0.815035,212.616972,650.287478
3.97,1.049286,0.815039,212.618131,650.290485
3.98,1.049286,0.815043,212.619311,650.293531
3.99,1.049285,0.815047,212.62051,650.296605
4,1.049285,0.815051,212.621725,650.299698
4.01,1.049285,0.815055,212.622957,650.302801
4.02,1.049285,0.815059,212.624202,650.305903
4.03,1.049285,0.815063,212.625459,650.308996
4.04,1.049284,0.815067,212.626726,650.31207
4.05,1.049284,0.815072,212.628002,650.315116
4.06,1.049284,0.815076,212.629285,650.318125
4.07,1.049283,0.81508,212.630573,650.32109
4.08,1.049283,0.815084,212.631865,650.324001
4.09,1.049283,0.815088,212.633158,650.326852
4.1,1.049283,0.815092,212.634451,650.329635
4.11,1.049282,0.815095,212.635743,650.332343
4.12,1.049282,0.815099,212.637032,650.334969
4.13,1.049282,0.815103,212.638317,650.337507
4.14,1.049281,0.815106,212.639595,650.339953
4.15,1.049281,0.815109,212.640866,650.342299
4.16,1.049281,0.815113,212.642129,650.344543
4.17,1.04928,0.815116,212.643381,650.346679
4.18,1.04928,0.815119,212.644622,650.348704
4.19,1.04928,0.815122,212.645851,650.350615
4.2,1.049279,0.815124,212.647066,650.35241
4.21,1.049279,0.815127,212.648266,650.354085
4.22,1.049279,0.815129,212.649451,650.35564
4.23,1.049278,0.815132,212.65062,650.357073
4.24,1.049278,0.815134,212.651771,650.358384
4.25,1.049278,0.815136,212.652904,650.359573
4.26,1.049278,0.815138,212.654019,650.36064
4.27,1.049277,0.815139,212.655113,650.361587
4.28,1.049277,0.815141,212.656189,650.362414
4.29,1.049277,0.815142,212.657243,650.363123
4.3,1.049277,0.815144,212.658277,650.363718
4.31,1.049276,0.815145,212.65929,650.3642
4.32,1.049276,0.815146,212.660281,650.364573
4.33,1.049276,0.815146,212.661251,650.36484
4.34,1.049276,0.815147,212.662199,650.365006
4.35,1.049276,0.815148,212.663125,650.365074
4.36,1.049275,0.815148,212.66403,650.365049
4.37,1.049275,0.815148,212.664913,650.364937
