b:tnow in s,s:ut in p.u.,s:cur1 in p.u.,s:Q1 in Mvar,s:P1 in MW
0,1.0635,0.764412,101.17501,560
0.01,1.063398,0.764777,101.341068,560.190692
0.02,1.063394,0.764786,101.338548,560.195423
0.03,1.063391,0.76479,101.33659,560.197488
0.04,1.063388,0.764792,101.334905,560.198441
0.05,1.063387,0.764794,101.333312,560.198748
0.06,1.063385,0.764794,101.331749,560.198714
0.07,1.063384,0.764795,101.330209,560.198528
0.08,1.063383,0.764795,101.328701,560.19831
0.09,1.063382,0.764794,101.327244,560.198131
0.1,1.063382,0.764794,101.325854,560.198033
0.11,1.063381,0.764794,101.324544,560.198036
0.12,1.063381,0.764794,101.323321,560.198149
0.13,1.063381,0.764795,101.322189,560.198368
0.14,1.063381,0.764795,101.321146,560.198683
0.15,1.063381,0.764795,101.32019,560.199079
0.16,1.063381,0.764796,101.319313,560.199539
0.17,1.063381,0.764796,101.318509,560.200044
0.18,1.063381,0.764797,101.317768,560.200571
0.19,1.063381,0.764797,101.317081,560.201099
0.2,1.063381,0.764798,101.316437,560.201607
0.21,1.063381,0.764798,101.315825,560.202072
0.22,1.063381,0.764798,101.315237,560.202474
0.23,1.063381,0.764798,101.314662,560.202792
0.24,1.063382,0.764798,101.314091,560.203005
0.25,1.063382,0.764798,101.313516,560.203097
0.26,1.063382,0.764798,101.312929,560.203048
0.27,1.063383,0.764797,101.312322,560.202845
0.28,1.063383,0.764796,101.311689,560.20247
0.29,1.063384,0.764794,101.311024,560.201912
0.3,1.063385,0.764793,101.310323,560.201157
0.31,1.063385,0.764791,101.309581,560.200197
0.32,1.063386,0.764789,101.308794,560.199021
0.33,1.063387,0.764786,101.30796,560.197623
0.34,1.063388,0.764783,101.307076,560.195996
0.35,1.063389,0.76478,101.306141,560.194136
0.36,1.06339,0.764776,101.305155,560.192041
0.37,1.063391,0.764772,101.304117,560.18971
0.38,1.063392,0.764767,101.303028,560.187141
0.39,1.063393,0.764763,101.301889,560.184339
0.4,1.063394,0.764757,101.3007,560.181305
0.41,1.063396,0.764752,101.299466,560.178045
0.42,1.063397,0.764746,101.298187,560.174564
0.43,1.063398,0.76474,101.296867,560.170871
0.44,1.0634,0.764733,101.295509,560.166974
0.45,1.063401,0.764726,101.294118,560.162884
0.46,1.063403,0.764719,101.292697,560.158612
0.47,1.063404,0.764712,101.291251,560.154171
0.48,1.063406,0.764704,101.289785,560.149574
0.49,1.063407,0.764697,101.288304,560.144836
0.5,1.063409,0.764689,101.286813,560.139973
0.51,1.063411,0.764681,101.285318,560.135001
0.52,1.063413,0.764672,101.283824,560.129938
0.53,1.063414,0.764664,101.282337,560.124801
0.54,1.063416,0.764655,101.280864,560.11961
0.55,1.063418,0.764647,101.279409,560.114384
0.56,1.06342,0.764638,101.27798,560.109141
0.57,1.063421,0.76463,101.276582,560.103903
0.58,1.063423,0.764621,101.275221,560.098689
0.59,1.063425,0.764613,101.273903,560.093519
0.6,1.063427,0.764604,101.272634,560.088413
0.61,1.063429,0.764596,101.27142,560.083393
0.62,1.06343,0.764588,101.270267,560.078478
0.63,1.063432,0.76458,101.269179,560.073688
0.64,1.063434,0.764573,101.268163,560.069042
0.65,1.063435,0.764565,101.267224,560.064559
0.66,1.063437,0.764558,101.266365,560.060259
0.67,1.063439,0.764551,101.265593,560.056159
0.68,1.06344,0.764545,101.264911,560.052276
0.69,1.063442,0.764539,101.264323,560.048626
0.7,1.063444,0.764533,101.263833,560.045227
0.71,1.063445,0.764528,101.263444,560.042091
0.72,1.063446,0.764523,101.26316,560.039233
0.73,1.063448,0.764519,101.262984,560.036666
0.74,1.063449,0.764515,101.262917,560.034402
0.75,1.06345,0.764511,101.262961,560.03245
0.76,1.063452,0.764508,101.263119,560.03082
0.77,1.063453,0.764506,101.263391,560.02952
0.78,1.063454,0.764504,101.263779,560.028558
0.79,1.063455,0.764502,101.264282,560.027938
0.8,1.063456,0.764501,101.264901,560.027664
0.81,1.063457,0.764501,101.265635,560.027741
0.82,1.063458,0.764501,101.266484,560.028169
0.83,1.063458,0.764502,101.267447,560.028948
0.84,1.063459,0.764503,101.268522,560.030078
0.85,1.06346,0.764505,101.269707,560.031556
0.86,1.06346,0.764507,101.270999,560.033378
0.87,1.063461,0.76451,101.272397,560.03554
0.88,1.063461,0.764514,101.273898,560.038034
0.89,1.063461,0.764518,101.275497,560.040854
0.9,1.063461,0.764522,101.277192,560.043992
0.91,1.063462,0.764527,101.278979,560.047436
0.92,1.063462,0.764532,101.280852,560.051176
0.93,1.063462,0.764538,101.282809,560.055201
0.94,1.063462,0.764544,101.284843,560.059496
0.95,1.063461,0.764551,101.286951,560.064049
0.96,1.063461,0.764558,101.289126,560.068844
0.97,1.063461,0.764565,101.291364,560.073866
0.98,1.063461,0.764573,101.293659,560.079097
0.99,1.06346,0.764581,101.296005,560.084523
1,1.06346,0.764589,101.298395,560.090123
1.01,1.063459,0.764598,101.300825,560.095881
1.02,1.063459,0.764607,101.303288,560.101777
1.03,1.063458,0.764616,101.305778,560.107793
1.04,1.063457,0.764625,101.308288,560.113909
1.05,1.063456,0.764634,101.310813,560.120105
1.06,1.063456,0.764644,101.313345,560.126362
1.07,1.063455,0.764653,101.315879,560.13266
1.08,1.063454,0.764663,101.318408,560.138979
1.09,1.063453,0.764672,101.320926,560.145299
1.1,1.063452,0.764682,101.323427,560.151601
1.11,1.063451,0.764692,101.325905,560.157866
1.12,1.06345,0.764701,101.328355,560.164074
1.13,1.063449,0.76471,101.330769,560.170206
1.14,1.063448,0.76472,101.333142,560.176246
1.15,1.063447,0.764729,101.33547,560.182174
1.16,1.063446,0.764738,101.337746,560.187974
1.17,1.063445,0.764747,101.339966,560.193629
1.18,1.063444,0.764755,101.342124,560.199124
1.19,1.063443,0.764764,101.344217,560.204443
1.2,1.063441,0.764772,101.346239,560.209572
1.21,1.06344,0.764779,101.348186,560.214498
1.22,1.063439,0.764787,101.350054,560.219207
1.23,1.063438,0.764794,101.35184,560.22369
1.24,1.063437,0.764801,101.35354,560.227934
1.25,1.063436,0.764807,101.355152,560.23193
1.26,1.063435,0.764813,101.356672,560.23567
1.27,1.063434,0.764819,101.358099,560.239145
1.28,1.063433,0.764824,101.359429,560.242349
1.29,1.063432,0.764829,101.360661,560.245277
1.3,1.063432,0.764833,101.361793,560.247923
1.31,1.063431,0.764837,101.362825,560.250284
1.32,1.06343,0.764841,101.363755,560.252359
1.33,1.063429,0.764844,101.364583,560.254145
1.34,1.063428,0.764846,101.365309,560.255642
1.35,1.063428,0.764849,101.365932,560.256852
1.36,1.063427,0.76485,101.366453,560.257775
1.37,1.063427,0.764852,101.366873,560.258414
1.38,1.063426,0.764853,101.367192,560.258774
1.39,1.063426,0.764853,101.367411,560.258858
1.4,1.063425,0.764853,101.367533,560.258673
1.41,1.063425,0.764853,101.367559,560.258225
1.42,1.063425,0.764852,101.367492,560.257521
1.43,1.063425,0.764851,101.367332,560.256569
1.44,1.063425,0.764849,101.367083,560.255378
1.45,1.063425,0.764847,101.366748,560.253958
1.46,1.063425,0.764845,101.36633,560.252319
1.47,1.063425,0.764843,101.365831,560.250473
1.48,1.063425,0.76484,101.365256,560.248429
1.49,1.063425,0.764836,101.364607,560.246201
1.5,1.063425,0.764833,101.363889,560.243801
1.51,1.063426,0.764829,101.363104,560.241242
1.52,1.063426,0.764825,101.362258,560.238536
1.53,1.063426,0.764821,101.361354,560.235699
1.54,1.063427,0.764816,101.360396,560.232742
1.55,1.063427,0.764812,101.359389,560.229681
1.56,1.063428,0.764807,101.358336,560.226529
1.57,1.063429,0.764802,101.357242,560.223301
1.58,1.063429,0.764796,101.356112,560.22001
1.59,1.06343,0.764791,101.35495,560.216671
1.6,1.063431,0.764786,101.353759,560.213299
1.61,1.063432,0.764781,101.352545,560.209906
1.62,1.063433,0.764775,101.351312,560.206507
1.63,1.063434,0.76477,101.350064,560.203115
1.64,1.063435,0.764764,101.348804,560.199743
1.65,1.063436,0.764759,101.347538,560.196404
1.66,1.063437,0.764753,101.346269,560.193111
1.67,1.063438,0.764748,101.345001,560.189876
1.68,1.063439,0.764743,101.343738,560.186709
1.69,1.06344,0.764737,101.342483,560.183623
1.7,1.063441,0.764732,101.34124,560.180628
1.71,1.063443,0.764727,101.340013,560.177733
1.72,1.063444,0.764722,101.338803,560.174948
1.73,1.063445,0.764718,101.337615,560.172281
1.74,1.063446,0.764713,101.336451,560.169741
1.75,1.063448,0.764709,101.335314,560.167334
1.76,1.063449,0.764705,101.334206,560.165069
1.77,1.06345,0.764701,101.333129,560.162949
1.78,1.063452,0.764697,101.332086,560.160981
1.79,1.063453,0.764693,101.331078,560.159168
1.8,1.063454,0.76469,101.330107,560.157515
1.81,1.063456,0.764687,101.329174,560.156025
1.82,1.063457,0.764684,101.32828,560.154699
1.83,1.063458,0.764681,101.327427,560.153539
1.84,1.063459,0.764679,101.326614,560.152545
1.85,1.063461,0.764677,101.325844,560.151718
1.86,1.063462,0.764675,101.325115,560.151057
1.87,1.063463,0.764673,101.324428,560.15056
1.88,1.063464,0.764671,101.323784,560.150225
1.89,1.063466,0.76467,101.323181,560.150049
1.9,1.063467,0.764669,101.322619,560.150029
1.91,1.063468,0.764668,101.322098,560.15016
1.92,1.063469,0.764668,101.321617,560.150439
1.93,1.06347,0.764667,101.321175,560.150858
1.94,1.063471,0.764667,101.320771,560.151414
1.95,1.063472,0.764667,101.320403,560.152099
1.96,1.063473,0.764668,101.32007,560.152906
1.97,1.063474,0.764668,101.319771,560.15383
1.98,1.063475,0.764669,101.319503,560.154861
1.99,1.063476,0.764669,101.319266,560.155993
2,1.063477,0.76467,101.319057,560.157216
2.01,1.063478,0.764671,101.318875,560.158523
2.02,1.063479,0.764673,101.318717,560.159905
2.03,1.06348,0.764674,101.318581,560.161353
2.04,1.06348,0.764675,101.318466,560.162859
2.05,1.063481,0.764677,101.318368,560.164412
2.06,1.063482,0.764678,101.318287,560.166005
2.07,1.063482,0.76468,101.31822,560.167628
2.08,1.063483,0.764682,101.318164,560.169272
2.09,1.063484,0.764683,101.318118,560.170929
2.1,1.063484,0.764685,101.31808,560.172589
2.11,1.063485,0.764687,101.318047,560.174244
2.12,1.063485,0.764689,101.318017,560.175886
2.13,1.063486,0.764691,101.317989,560.177506
2.14,1.063486,0.764692,101.317961,560.179098
2.15,1.063487,0.764694,101.31793,560.180652
2.16,1.063487,0.764696,101.317896,560.182164
2.17,1.063488,0.764697,101.317857,560.183625
2.18,1.063488,0.764699,101.31781,560.185029
2.19,1.063488,0.764701,101.317755,560.186371
2.2,1.063489,0.764702,101.317691,560.187645
2.21,1.063489,0.764703,101.317616,560.188847
2.22,1.063489,0.764705,101.31753,560.189973
2.23,1.063489,0.764706,101.317431,560.191018
2.24,1.06349,0.764707,101.31732,560.191979
2.25,1.06349,0.764708,101.317194,560.192854
2.26,1.06349,0.764709,101.317055,560.19364
2.27,1.06349,0.76471,101.316901,560.194337
2.28,1.06349,0.76471,101.316733,560.194943
2.29,1.06349,0.764711,101.31655,560.195458
2.3,1.06349,0.764711,101.316353,560.195882
2.31,1.06349,0.764712,101.316142,560.196217
2.32,1.063491,0.764712,101.315918,560.196463
2.33,1.063491,0.764712,101.31568,560.196623
2.34,1.063491,0.764712,101.315431,560.196699
2.35,1.063491,0.764712,101.315171,560.196694
2.36,1.063491,0.764712,101.3149,560.196612
2.37,1.063491,0.764711,101.31462,560.196457
2.38,1.063491,0.764711,101.314332,560.196234
2.39,1.063491,0.764711,101.314038,560.195946
2.4,1.06349,0.76471,101.313738,560.195601
2.41,1.06349,0.76471,101.313435,560.195204
2.42,1.06349,0.764709,101.313129,560.19476
2.43,1.06349,0.764708,101.312823,560.194276
2.44,1.06349,0.764708,101.312518,560.19376
2.45,1.06349,0.764707,101.312216,560.193217
2.46,1.06349,0.764706,101.311919,560.192656
2.47,1.06349,0.764706,101.311628,560.192083
2.48,1.06349,0.764705,101.311346,560.191507
2.49,1.063489,0.764704,101.311074,560.190934
2.5,1.063489,0.764703,101.310814,560.190373
2.51,1.063489,0.764703,101.310567,560.189831
2.52,1.063489,0.764702,101.310336,560.189316
2.53,1.063489,0.764702,101.310122,560.188835
2.54,1.063488,0.764701,101.309928,560.188397
2.55,1.063488,0.764701,101.309753,560.188007
2.56,1.063488,0.764701,101.309601,560.187675
2.57,1.063488,0.7647,101.309473,560.187406
2.58,1.063487,0.7647,101.309369,560.187207
2.59,1.063487,0.7647,101.309292,560.187085
2.6,1.063487,0.764701,101.309242,560.187046
2.61,1.063486,0.764701,101.309221,560.187095
2.62,1.063486,0.764701,101.309229,560.187238
2.63,1.063486,0.764702,101.309267,560.187481
2.64,1.063485,0.764703,101.309336,560.187826
2.65,1.063485,0.764704,101.309437,560.188279
2.66,1.063484,0.764705,101.309569,560.188844
2.67,1.063484,0.764706,101.309734,560.189522
2.68,1.063483,0.764707,101.309931,560.190317
2.69,1.063483,0.764709,101.31016,560.19123
2.7,1.063482,0.764711,101.310421,560.192263
2.71,1.063482,0.764713,101.310713,560.193418
2.72,1.063481,0.764715,101.311037,560.194693
2.73,1.063481,0.764717,101.311391,560.196089
2.74,1.06348,0.76472,101.311774,560.197605
2.75,1.06348,0.764722,101.312186,560.19924
2.76,1.063479,0.764725,101.312625,560.200991
2.77,1.063479,0.764728,101.31309,560.202856
2.78,1.063478,0.764731,101.31358,560.204832
2.79,1.063477,0.764735,101.314093,560.206915
2.8,1.063477,0.764738,101.314628,560.2091
2.81,1.063476,0.764742,101.315181,560.211384
2.82,1.063475,0.764746,101.315753,560.21376
2.83,1.063475,0.764749,101.31634,560.216223
2.84,1.063474,0.764753,101.31694,560.218767
2.85,1.063473,0.764758,101.317551,560.221385
2.86,1.063472,0.764762,101.318171,560.224071
2.87,1.063472,0.764766,101.318797,560.226816
2.88,1.063471,0.76477,101.319426,560.229613
2.89,1.06347,0.764775,101.320057,560.232454
2.9,1.06347,0.764779,101.320686,560.23533
2.91,1.063469,0.764784,101.321311,560.238234
2.92,1.063468,0.764788,101.321929,560.241155
2.93,1.063467,0.764793,101.322538,560.244086
2.94,1.063467,0.764798,101.323134,560.247017
2.95,1.063466,0.764802,101.323716,560.24994
2.96,1.063465,0.764807,101.324279,560.252843
2.97,1.063464,0.764811,101.324822,560.25572
2.98,1.063464,0.764815,101.325343,560.25856
2.99,1.063463,0.76482,101.325838,560.261354
3,1.063462,0.764824,101.326304,560.264093
3.01,1.063462,0.764828,101.326741,560.266768
3.02,1.063461,0.764832,101.327144,560.269371
3.03,1.06346,0.764836,101.327512,560.271893
3.04,1.06346,0.76484,101.327843,560.274325
3.05,1.063459,0.764843,101.328135,560.276661
3.06,1.063459,0.764847,101.328385,560.278891
3.07,1.063458,0.76485,101.328592,560.28101
3.08,1.063457,0.764853,101.328754,560.283009
3.09,1.063457,0.764856,101.32887,560.284883
3.1,1.063456,0.764859,101.328939,560.286626
3.11,1.063456,0.764861,101.328958,560.288231
3.12,1.063456,0.764863,101.328927,560.289694
3.13,1.063455,0.764865,101.328846,560.291011
3.14,1.063455,0.764867,101.328712,560.292177
3.15,1.063454,0.764869,101.328527,560.293188
3.16,1.063454,0.76487,101.328288,560.294042
3.17,1.063454,0.764871,101.327997,560.294737
3.18,1.063454,0.764872,101.327653,560.29527
3.19,1.063453,0.764872,101.327256,560.29564
3.2,1.063453,0.764873,101.326807,560.295848
3.21,1.063453,0.764873,101.326305,560.295892
3.22,1.063453,0.764873,101.325752,560.295774
3.23,1.063453,0.764872,101.325149,560.295494
3.24,1.063453,0.764871,101.324496,560.295055
3.25,1.063453,0.76487,101.323795,560.294458
3.26,1.063453,0.764869,101.323047,560.293707
3.27,1.063453,0.764868,101.322253,560.292805
3.28,1.063453,0.764866,101.321416,560.291757
3.29,1.063453,0.764864,101.320536,560.290566
3.3,1.063453,0.764862,101.319616,560.289238
3.31,1.063453,0.76486,101.318658,560.287778
3.32,1.063453,0.764857,101.317665,560.286193
3.33,1.063454,0.764855,101.316637,560.284488
3.34,1.063454,0.764852,101.315579,560.282671
3.35,1.063454,0.764849,101.314492,560.280749
3.36,1.063455,0.764846,101.313378,560.27873
3.37,1.063455,0.764842,101.312242,560.276621
3.38,1.063455,0.764839,101.311084,560.274431
3.39,1.063456,0.764835,101.309909,560.272168
3.4,1.063456,0.764832,101.308719,560.269841
3.41,1.063457,0.764828,101.307517,560.267458
3.42,1.063457,0.764824,101.306306,560.26503
3.43,1.063458,0.76482,101.305088,560.262565
3.44,1.063458,0.764816,101.303867,560.260073
3.45,1.063459,0.764812,101.302646,560.257562
3.46,1.06346,0.764808,101.301428,560.255042
3.47,1.06346,0.764804,101.300215,560.252523
3.48,1.063461,0.7648,101.29901,560.250014
3.49,1.063461,0.764796,101.297817,560.247523
3.5,1.063462,0.764792,101.296638,560.245061
3.51,1.063463,0.764788,101.295476,560.242636
3.52,1.063463,0.764784,101.294333,560.240257
3.53,1.063464,0.76478,101.293212,560.237932
3.54,1.063465,0.764777,101.292116,560.235669
3.55,1.063465,0.764773,101.291046,560.233478
3.56,1.063466,0.764769,101.290006,560.231364
3.57,1.063467,0.764766,101.288997,560.229337
3.58,1.063467,0.764763,101.288022,560.227402
3.59,1.063468,0.76476,101.287081,560.225566
3.6,1.063468,0.764757,101.286178,560.223836
3.61,1.063469,0.764754,101.285314,560.222217
3.62,1.06347,0.764751,101.28449,560.220715
3.63,1.06347,0.764749,101.283707,560.219335
3.64,1.063471,0.764747,101.282968,560.21808
3.65,1.063471,0.764745,101.282272,560.216956
3.66,1.063472,0.764743,101.281621,560.215965
3.67,1.063473,0.764741,101.281016,560.215111
3.68,1.063473,0.76474,101.280457,560.214395
3.69,1.063474,0.764738,101.279945,560.21382
3.7,1.063474,0.764737,101.279479,560.213387
3.71,1.063475,0.764736,101.279061,560.213097
3.72,1.063475,0.764736,101.27869,560.212951
3.73,1.063475,0.764736,101.278366,560.212948
3.74,1.063476,0.764735,101.278089,560.213088
3.75,1.063476,0.764735,101.277857,560.213369
3.76,1.063476,0.764736,101.277672,560.21379
3.77,1.063477,0.764736,101.277531,560.214349
3.78,1.063477,0.764737,101.277434,560.215044
3.79,1.063477,0.764738,101.27738,560.21587
3.8,1.063477,0.764739,101.277368,560.216826
3.81,1.063478,0.76474,101.277397,560.217906
3.82,1.063478,0.764742,101.277465,560.219107
3.83,1.063478,0.764743,101.27757,560.220425
3.84,1.063478,0.764745,101.277712,560.221853
3.85,1.063478,0.764747,101.277889,560.223388
3.86,1.063478,0.764749,101.278098,560.225022
3.87,1.063478,0.764752,101.278338,560.226752
3.88,1.063478,0.764754,101.278608,560.228569
3.89,1.063478,0.764757,101.278904,560.230468
3.9,1.063478,0.76476,101.279226,560.232443
3.91,1.063478,0.764762,101.279571,560.234487
3.92,1.063478,0.764765,101.279938,560.236592
3.93,1.063478,0.764769,101.280323,560.238752
3.94,1.063477,0.764772,101.280725,560.24096
3.95,1.063477,0.764775,101.281142,560.243209
3.96,1.063477,0.764778,101.281571,560.245491
3.97,1.063477,0.764782,101.282011,560.2478
3.98,1.063476,0.764785,101.282459,560.250127
3.99,1.063476,0.764788,101.282914,560.252467
4,1.063476,0.764792,101.283373,560.254812
4.01,1.063475,0.764795,101.283834,560.257155
4.02,1.063475,0.764799,101.284295,560.25949
4.03,1.063475,0.764802,101.284755,560.26181
4.04,1.063474,0.764806,101.285211,560.264108
4.05,1.063474,0.764809,101.285661,560.266378
4.06,1.063473,0.764812,101.286105,560.268615
4.07,1.063473,0.764816,101.286539,560.270812
4.08,1.063473,0.764819,101.286963,560.272964
4.09,1.063472,0.764822,101.287375,560.275066
4.1,1.063472,0.764825,101.287774,560.277112
4.11,1.063471,0.764828,101.288158,560.279099
4.12,1.063471,0.764831,101.288526,560.281022
4.13,1.06347,0.764834,101.288877,560.282877
4.14,1.06347,0.764837,101.28921,560.28466
4.15,1.063469,0.76484,101.289524,560.286369
4.16,1.063469,0.764842,101.289817,560.288
4.17,1.063468,0.764845,101.290091,560.28955
4.18,1.063468,0.764847,101.290343,560.291018
4.19,1.063467,0.764849,101.290573,560.292402
4.2,1.063467,0.764851,101.290781,560.293701
4.21,1.063466,0.764853,101.290966,560.294913
4.22,1.063466,0.764855,101.291129,560.296038
4.23,1.063465,0.764857,101.291269,560.297075
4.24,1.063465,0.764859,101.291386,560.298025
4.25,1.063464,0.76486,101.29148,560.298888
4.26,1.063464,0.764862,101.291552,560.299665
4.27,1.063463,0.764863,101.291602,560.300356
4.28,1.063463,0.764864,101.291629,560.300965
4.29,1.063462,0.764865,101.291635,560.301491
4.3,1.063462,0.764866,101.291621,560.301938
4.31,1.063462,0.764867,101.291585,560.302307
4.32,1.063461,0.764867,101.29153,560.302602
4.33,1.063461,0.764868,101.291457,560.302825
4.34,1.06346,0.764868,101.291365,560.302979
4.35,1.06346,0.764869,101.291255,560.303068
4.36,1.06346,0.764869,101.29113,560.303095
4.37,1.063459,0.764869,101.290989,560.303064
