"b:tnow in s","s:ut in p.u.","s:cur1 in p.u.","s:Q1 in Mvar","s:P1 in MW"
0.000000,1.029756,0.781235,184.999959,699.999940
0.010000,1.036261,0.741633,168.706790,670.782835
0.020000,1.036344,0.741279,169.055125,670.411478
0.030000,1.036361,0.740936,169.375979,670.012332
0.040000,1.036330,0.740603,169.679781,669.593482
0.050000,1.036262,0.740279,169.974778,669.160473
0.060000,1.036168,0.739963,170.267493,668.717143
0.070000,1.036053,0.739655,170.563086,668.266217
0.080000,1.035921,0.739355,170.865647,667.809702
0.090000,1.035776,0.739063,171.178425,667.349171
0.100000,1.035620,0.738780,171.504008,666.885941
0.110000,1.028654,0.779226,188.973959,696.207624
0.120000,1.028372,0.779359,188.993214,696.125468
0.130000,1.028147,0.779500,189.068737,696.075728
0.140000,1.027961,0.779648,189.187372,696.050884
0.150000,1.027801,0.779808,189.338871,696.046241
0.160000,1.027659,0.779979,189.515254,696.058999
0.170000,1.027528,0.780164,189.710302,696.087591
0.180000,1.027405,0.780362,189.919155,696.131260
0.190000,1.027286,0.780576,190.137998,696.189754
0.200000,1.027168,0.780806,190.363837,696.263082
0.210000,1.027052,0.781052,190.594301,696.351372
0.220000,1.026937,0.781315,190.827499,696.454777
0.230000,1.026821,0.781594,191.061906,696.573411
0.240000,1.026705,0.781889,191.296279,696.707314
0.250000,1.026589,0.782200,191.529592,696.856425
0.260000,1.026472,0.782527,191.760978,697.020571
0.270000,1.026356,0.782868,191.989697,697.199465
0.280000,1.026240,0.783223,192.215105,697.392703
0.290000,1.026125,0.783591,192.436627,697.599771
0.300000,1.026010,0.783971,192.653742,697.820049
0.310000,1.025897,0.784361,192.865971,698.052818
0.320000,1.025785,0.784762,193.072865,698.297268
0.330000,1.025676,0.785170,193.274000,698.552508
0.340000,1.025568,0.785586,193.468968,698.817567
0.350000,1.025463,0.786007,193.657375,699.091411
0.360000,1.025360,0.786432,193.838839,699.372950
0.370000,1.025261,0.786859,194.012983,699.661043
0.380000,1.025165,0.787288,194.179443,699.954507
0.390000,1.025072,0.787716,194.337859,700.252123
0.400000,1.024983,0.788141,194.487878,700.552647
0.410000,1.024898,0.788563,194.629154,700.854814
0.420000,1.024818,0.788980,194.761348,701.157346
0.430000,1.024742,0.789389,194.884129,701.458959
0.440000,1.024670,0.789789,194.997175,701.758373
0.450000,1.024604,0.790180,195.100170,702.054311
0.460000,1.024542,0.790558,195.192812,702.345514
0.470000,1.024486,0.790924,195.274808,702.630739
0.480000,1.024435,0.791274,195.345876,702.908770
0.490000,1.024390,0.791608,195.405749,703.178423
0.500000,1.024350,0.791925,195.454173,703.438547
0.510000,1.024316,0.792223,195.490909,703.688035
0.520000,1.024288,0.792500,195.515736,703.925824
0.530000,1.024267,0.792756,195.528449,704.150902
0.540000,1.024251,0.792989,195.528859,704.362310
0.550000,1.024241,0.793199,195.516800,704.559148
0.560000,1.024237,0.793384,195.492125,704.740576
0.570000,1.024240,0.793544,195.454707,704.905819
0.580000,1.024249,0.793677,195.404440,705.054170
0.590000,1.024265,0.793784,195.341245,705.184991
0.600000,1.024287,0.793863,195.265061,705.297714
0.610000,1.024315,0.793914,195.175853,705.391848
0.620000,1.024349,0.793936,195.073613,705.466973
0.630000,1.024390,0.793929,194.958354,705.522748
0.640000,1.024437,0.793893,194.830117,705.558908
0.650000,1.024491,0.793828,194.688966,705.575266
0.660000,1.024550,0.793734,194.534995,705.571711
0.670000,1.024616,0.793611,194.368319,705.548210
0.680000,1.024687,0.793458,194.189082,705.504807
0.690000,1.024765,0.793277,193.997454,705.441623
0.700000,1.024848,0.793067,193.793629,705.358854
0.710000,1.024937,0.792830,193.577828,705.256768
0.720000,1.025032,0.792565,193.350298,705.135708
0.730000,1.025132,0.792273,193.111307,704.996084
0.740000,1.025238,0.791955,192.861152,704.838378
0.750000,1.025348,0.791612,192.600152,704.663134
0.760000,1.025464,0.791244,192.328647,704.470963
0.770000,1.025584,0.790853,192.047002,704.262533
0.780000,1.025709,0.790440,191.755604,704.038571
0.790000,1.025838,0.790005,191.454859,703.799859
0.800000,1.025972,0.789550,191.145193,703.547229
0.810000,1.026110,0.789076,190.827052,703.281559
0.820000,1.026251,0.788585,190.500900,703.003773
0.830000,1.026396,0.788077,190.167216,702.714832
0.840000,1.026545,0.787554,189.826498,702.415735
0.850000,1.026697,0.787018,189.479254,702.107511
0.860000,1.026852,0.786469,189.126010,701.791217
0.870000,1.027009,0.785910,188.767303,701.467933
0.880000,1.027169,0.785341,188.403679,701.138758
0.890000,1.027332,0.784765,188.035696,700.804804
0.900000,1.027496,0.784183,187.663920,700.467195
0.910000,1.027662,0.783596,187.288925,700.127058
0.920000,1.027830,0.783006,186.911291,699.785520
0.930000,1.027999,0.782414,186.531603,699.443707
0.940000,1.028170,0.781822,186.150446,699.102738
0.950000,1.028341,0.781232,185.768410,698.763721
0.960000,1.028513,0.780644,185.386087,698.427747
0.970000,1.028686,0.780061,185.004066,698.095887
0.980000,1.028859,0.779484,184.622934,697.769187
0.990000,1.029032,0.778913,184.243276,697.448664
1.000000,1.029204,0.778352,183.865669,697.135305
1.010000,1.029377,0.777800,183.490685,696.830060
1.020000,1.029548,0.777259,183.118890,696.533843
1.030000,1.029719,0.776730,182.750841,696.247522
1.040000,1.029889,0.776215,182.387087,695.971923
1.050000,1.030057,0.775714,182.028165,695.707820
1.060000,1.030225,0.775229,181.674601,695.455942
1.070000,1.030390,0.774760,181.326908,695.216966
1.080000,1.030554,0.774309,180.985586,694.991517
1.090000,1.030716,0.773876,180.651120,694.780167
1.100000,1.030875,0.773463,180.323982,694.583428
1.110000,1.031033,0.773069,180.004627,694.401754
1.120000,1.031187,0.772695,179.693494,694.235538
1.130000,1.031340,0.772343,179.391004,694.085117
1.140000,1.031489,0.772012,179.097562,693.950763
1.150000,1.031635,0.771703,178.813551,693.832690
1.160000,1.031779,0.771416,178.539339,693.731049
1.170000,1.031919,0.771151,178.275270,693.645933
1.180000,1.032056,0.770910,178.021671,693.577373
1.190000,1.032189,0.770691,177.778850,693.525334
1.200000,1.032319,0.770495,177.547092,693.489727
1.210000,1.032445,0.770322,177.326657,693.470411
1.220000,1.032567,0.770172,177.117783,693.467192
1.230000,1.032685,0.770044,176.920690,693.479818
1.240000,1.032800,0.769939,176.735575,693.507987
1.250000,1.032910,0.769856,176.562612,693.551345
1.260000,1.033016,0.769795,176.401953,693.609493
1.270000,1.033118,0.769756,176.253727,693.681982
1.280000,1.033215,0.769737,176.118041,693.768325
1.290000,1.033309,0.769739,175.994979,693.867991
1.300000,1.033397,0.769761,175.884603,693.980417
1.310000,1.033482,0.769802,175.786955,694.105000
1.320000,1.033561,0.769862,175.702054,694.241112
1.330000,1.033636,0.769941,175.629901,694.388093
1.340000,1.033707,0.770036,175.570473,694.545260
1.350000,1.033772,0.770149,175.523729,694.711909
1.360000,1.033833,0.770277,175.489611,694.887319
1.370000,1.033890,0.770420,175.468037,695.070751
1.380000,1.033941,0.770578,175.458912,695.261459
1.390000,1.033988,0.770750,175.462121,695.458685
1.400000,1.034030,0.770934,175.477531,695.661669
1.410000,1.034067,0.771130,175.504994,695.869649
1.420000,1.034099,0.771338,175.544348,696.081864
1.430000,1.034127,0.771555,175.595413,696.297556
1.440000,1.034149,0.771783,175.657997,696.515979
1.450000,1.034167,0.772018,175.731894,696.736393
1.460000,1.034180,0.772262,175.816887,696.958074
1.470000,1.034188,0.772513,175.912744,697.180313
1.480000,1.034192,0.772769,176.019225,697.402419
1.490000,1.034190,0.773032,176.136078,697.623724
1.500000,1.034184,0.773299,176.263043,697.843580
1.510000,1.034173,0.773570,176.399848,698.061368
1.520000,1.034158,0.773844,176.546218,698.276492
1.530000,1.034138,0.774121,176.701867,698.488388
1.540000,1.034113,0.774399,176.866504,698.696521
1.550000,1.034083,0.774680,177.039831,698.900389
1.560000,1.034050,0.774960,177.221546,699.099523
1.570000,1.034011,0.775241,177.411343,699.293488
1.580000,1.033968,0.775522,177.608910,699.481883
1.590000,1.033921,0.775801,177.813935,699.664347
1.600000,1.033870,0.776080,178.026099,699.840550
1.610000,1.033814,0.776356,178.245086,700.010203
1.620000,1.033754,0.776631,178.470574,700.173053
1.630000,1.033691,0.776902,178.702244,700.328884
1.640000,1.033623,0.777172,178.939771,700.477517
1.650000,1.033551,0.777437,179.182836,700.618809
1.660000,1.033475,0.777700,179.431116,700.752655
1.670000,1.033395,0.777959,179.684291,700.878984
1.680000,1.033312,0.778214,179.942039,700.997761
1.690000,1.033225,0.778466,180.204043,701.108985
1.700000,1.033134,0.778713,180.469985,701.212688
1.710000,1.033040,0.778957,180.739550,701.308933
1.720000,1.032943,0.779196,181.012425,701.397816
1.730000,1.032843,0.779431,181.288297,701.479459
1.740000,1.032739,0.779662,181.566860,701.554014
1.750000,1.032632,0.779889,181.847806,701.621660
1.760000,1.032523,0.780111,182.130834,701.682598
1.770000,1.032410,0.780330,182.415641,701.737054
1.780000,1.032295,0.780545,182.701932,701.785275
1.790000,1.032178,0.780756,182.989411,701.827525
1.800000,1.032057,0.780963,183.277789,701.864089
1.810000,1.031935,0.781167,183.566776,701.895264
1.820000,1.031810,0.781368,183.856089,701.921362
1.830000,1.031684,0.781565,184.145445,701.942708
1.840000,1.031555,0.781759,184.434568,701.959634
1.850000,1.031425,0.781950,184.723181,701.972479
1.860000,1.031292,0.782139,185.011014,701.981592
1.870000,1.031159,0.782325,185.297798,701.987321
1.880000,1.031024,0.782509,185.583268,701.990017
1.890000,1.030888,0.782691,185.867163,701.990031
1.900000,1.030750,0.782870,186.149226,701.987706
1.910000,1.030612,0.783048,186.429203,701.983385
1.920000,1.030473,0.783225,186.706839,701.977408
1.930000,1.030333,0.783400,186.981885,701.970110
1.940000,1.030193,0.783573,187.254094,701.961815
1.950000,1.030053,0.783745,187.523224,701.952836
1.960000,1.029912,0.783917,187.789034,701.943475
1.970000,1.029771,0.784087,188.051286,701.934018
1.980000,1.029631,0.784257,188.309744,701.924739
1.990000,1.029490,0.784426,188.564176,701.915894
2.000000,1.029351,0.784594,188.814352,701.907722
2.010000,1.029211,0.784761,189.060044,701.900447
2.020000,1.029073,0.784928,189.301030,701.894272
2.030000,1.028935,0.785094,189.537090,701.889381
2.040000,1.028799,0.785260,189.768008,701.885935
2.050000,1.028664,0.785425,189.993574,701.884072
2.060000,1.028530,0.785589,190.213578,701.883910
2.070000,1.028397,0.785753,190.427815,701.885554
2.080000,1.028267,0.785915,190.636084,701.889091
2.090000,1.028138,0.786076,190.838189,701.894582
2.100000,1.028011,0.786237,191.033940,701.902066
2.110000,1.027887,0.786396,191.223152,701.911562
2.120000,1.027764,0.786553,191.405644,701.923068
2.130000,1.027644,0.786709,191.581242,701.936561
2.140000,1.027527,0.786863,191.749774,701.951996
2.150000,1.027412,0.787015,191.911077,701.969310
2.160000,1.027301,0.787164,192.064992,701.988421
2.170000,1.027192,0.787311,192.211365,702.009227
2.180000,1.027086,0.787455,192.350048,702.031610
2.190000,1.026984,0.787596,192.480899,702.055432
2.200000,1.026885,0.787733,192.603783,702.080543
2.210000,1.026790,0.787866,192.718570,702.106774
2.220000,1.026698,0.787996,192.825136,702.133943
2.230000,1.026610,0.788121,192.923364,702.161857
2.240000,1.026526,0.788241,193.013143,702.190307
2.250000,1.026446,0.788355,193.094368,702.219076
2.260000,1.026370,0.788465,193.166941,702.247934
2.270000,1.026298,0.788568,193.230773,702.276646
2.280000,1.026230,0.788666,193.285780,702.304969
2.290000,1.026167,0.788757,193.331889,702.332656
2.300000,1.026108,0.788841,193.369031,702.359455
2.310000,1.026053,0.788917,193.397151,702.385110
2.320000,1.026003,0.788986,193.416199,702.409365
2.330000,1.025958,0.789048,193.426136,702.431962
2.340000,1.025918,0.789101,193.426931,702.452646
2.350000,1.025882,0.789145,193.418563,702.471162
2.360000,1.025851,0.789181,193.401021,702.487259
2.370000,1.025824,0.789207,193.374303,702.500693
2.380000,1.025803,0.789225,193.338419,702.511222
2.390000,1.025786,0.789232,193.293387,702.518615
2.400000,1.025775,0.789230,193.239236,702.522647
2.410000,1.025768,0.789217,193.176006,702.523104
2.420000,1.025766,0.789195,193.103746,702.519779
2.430000,1.025769,0.789162,193.022519,702.512482
2.440000,1.025777,0.789118,192.932396,702.501030
2.450000,1.025789,0.789063,192.833458,702.485256
2.460000,1.025807,0.788998,192.725801,702.465007
2.470000,1.025829,0.788921,192.609528,702.440144
2.480000,1.025856,0.788834,192.484756,702.410544
2.490000,1.025888,0.788735,192.351609,702.376100
2.500000,1.025925,0.788625,192.210227,702.336722
2.510000,1.025966,0.788505,192.060756,702.292337
2.520000,1.026011,0.788373,191.903357,702.242890
2.530000,1.026062,0.788230,191.738200,702.188343
2.540000,1.026116,0.788077,191.565464,702.128677
2.550000,1.026175,0.787912,191.385342,702.063891
2.560000,1.026239,0.787737,191.198033,701.994003
2.570000,1.026306,0.787552,191.003751,701.919049
2.580000,1.026378,0.787356,190.802717,701.839085
2.590000,1.026453,0.787151,190.595162,701.754184
2.600000,1.026533,0.786936,190.381326,701.664436
2.610000,1.026616,0.786711,190.161460,701.569953
2.620000,1.026703,0.786477,189.935823,701.470861
2.630000,1.026793,0.786234,189.704683,701.367306
2.640000,1.026887,0.785983,189.468315,701.259448
2.650000,1.026984,0.785724,189.227004,701.147467
2.660000,1.027085,0.785456,188.981040,701.031555
2.670000,1.027188,0.785182,188.730723,700.911923
2.680000,1.027294,0.784901,188.476359,700.788792
2.690000,1.027403,0.784613,188.218258,700.662400
2.700000,1.027514,0.784320,187.956740,700.532996
2.710000,1.027628,0.784021,187.692128,700.400842
2.720000,1.027745,0.783717,187.424749,700.266212
2.730000,1.027863,0.783408,187.154936,700.129390
2.740000,1.027983,0.783096,186.883027,699.990671
2.750000,1.028105,0.782780,186.609361,699.850354
2.760000,1.028229,0.782461,186.334284,699.708750
2.770000,1.028354,0.782140,186.058139,699.566174
2.780000,1.028481,0.781818,185.781277,699.422945
2.790000,1.028609,0.781494,185.504044,699.279390
2.800000,1.028738,0.781169,185.226791,699.135833
2.810000,1.028867,0.780845,184.949866,698.992605
2.820000,1.028998,0.780521,184.673619,698.850035
2.830000,1.029128,0.780198,184.398395,698.708453
2.840000,1.029260,0.779877,184.124543,698.568186
2.850000,1.029391,0.779558,183.852405,698.429560
2.860000,1.029522,0.779241,183.582324,698.292897
2.870000,1.029654,0.778928,183.314639,698.158512
2.880000,1.029785,0.778619,183.049684,698.026712
2.890000,1.029915,0.778314,182.787792,697.897802
2.900000,1.030045,0.778014,182.529287,697.772079
2.910000,1.030174,0.777720,182.274491,697.649836
2.920000,1.030302,0.777431,182.023718,697.531354
2.930000,1.030429,0.777149,181.777280,697.416904
2.940000,1.030555,0.776873,181.535479,697.306747
2.950000,1.030680,0.776605,181.298614,697.201131
2.960000,1.030803,0.776344,181.066974,697.100291
2.970000,1.030924,0.776092,180.840842,697.004449
2.980000,1.031044,0.775847,180.620493,696.913815
2.990000,1.031161,0.775612,180.406192,696.828583
3.000000,1.031277,0.775386,180.198197,696.748932
3.010000,1.031390,0.775169,179.996756,696.675027
3.020000,1.031501,0.774962,179.802109,696.607015
3.030000,1.031610,0.774766,179.614483,696.545029
3.040000,1.031716,0.774579,179.434098,696.489186
3.050000,1.031820,0.774403,179.261163,696.439583
3.060000,1.031920,0.774238,179.095874,696.396302
3.070000,1.032018,0.774084,178.938422,696.359406
3.080000,1.032113,0.773941,178.788980,696.328941
3.090000,1.032205,0.773809,178.647712,696.304938
3.100000,1.032294,0.773689,178.514769,696.287414
3.110000,1.032379,0.773580,178.390292,696.276368
3.120000,1.032462,0.773483,178.274407,696.271781
3.130000,1.032540,0.773397,178.167232,696.273619
3.140000,1.032616,0.773323,178.068870,696.281831
3.150000,1.032688,0.773261,177.979411,696.296350
3.160000,1.032756,0.773210,177.898934,696.317095
3.170000,1.032820,0.773170,177.827507,696.343968
3.180000,1.032881,0.773143,177.765182,696.376858
3.190000,1.032938,0.773126,177.712003,696.415641
3.200000,1.032992,0.773121,177.668000,696.460179
3.210000,1.033041,0.773127,177.633189,696.510321
3.220000,1.033087,0.773144,177.607577,696.565905
3.230000,1.033128,0.773172,177.591157,696.626756
3.240000,1.033166,0.773210,177.583912,696.692692
3.250000,1.033200,0.773260,177.585811,696.763518
3.260000,1.033229,0.773319,177.596814,696.839031
3.270000,1.033255,0.773388,177.616866,696.919022
3.280000,1.033277,0.773468,177.645907,697.003268
3.290000,1.033294,0.773557,177.683860,697.091547
3.300000,1.033308,0.773655,177.730640,697.183627
3.310000,1.033317,0.773762,177.786150,697.279272
3.320000,1.033323,0.773878,177.850283,697.378242
3.330000,1.033324,0.774003,177.922924,697.480293
3.340000,1.033322,0.774135,178.003945,697.585180
3.350000,1.033315,0.774276,178.093211,697.692653
3.360000,1.033305,0.774424,178.190576,697.802465
3.370000,1.033290,0.774580,178.295885,697.914365
3.380000,1.033272,0.774742,178.408976,698.028106
3.390000,1.033249,0.774911,178.529677,698.143439
3.400000,1.033223,0.775086,178.657808,698.260119
3.410000,1.033193,0.775268,178.793181,698.377904
3.420000,1.033160,0.775455,178.935601,698.496553
3.430000,1.033122,0.775647,179.084866,698.615832
3.440000,1.033081,0.775844,179.240767,698.735510
3.450000,1.033036,0.776046,179.403087,698.855360
3.460000,1.032988,0.776252,179.571605,698.975163
3.470000,1.032936,0.776462,179.746092,699.094705
3.480000,1.032881,0.776676,179.926316,699.213778
3.490000,1.032822,0.776893,180.112038,699.332182
3.500000,1.032760,0.777114,180.303013,699.449725
3.510000,1.032695,0.777337,180.498993,699.566221
3.520000,1.032627,0.777562,180.699727,699.681494
3.530000,1.032556,0.777790,180.904957,699.795376
3.540000,1.032482,0.778019,181.114425,699.907706
3.550000,1.032405,0.778250,181.327866,700.018335
3.560000,1.032325,0.778482,181.545015,700.127120
3.570000,1.032242,0.778715,181.765603,700.233928
3.580000,1.032157,0.778949,181.989359,700.338636
3.590000,1.032070,0.779183,182.216011,700.441130
3.600000,1.031980,0.779418,182.445284,700.541304
3.610000,1.031888,0.779652,182.676902,700.639064
3.620000,1.031793,0.779886,182.910590,700.734321
3.630000,1.031697,0.780120,183.146069,700.826999
3.640000,1.031598,0.780353,183.383062,700.917029
3.650000,1.031498,0.780585,183.621291,701.004350
3.660000,1.031396,0.780815,183.860479,701.088912
3.670000,1.031292,0.781045,184.100348,701.170671
3.680000,1.031187,0.781272,184.340624,701.249592
3.690000,1.031081,0.781498,184.581030,701.325648
3.700000,1.030973,0.781722,184.821295,701.398816
3.710000,1.030864,0.781944,185.061146,701.469081
3.720000,1.030754,0.782163,185.300314,701.536437
3.730000,1.030644,0.782380,185.538529,701.600885
3.740000,1.030532,0.782594,185.775525,701.662434
3.750000,1.030420,0.782805,186.011039,701.721098
3.760000,1.030307,0.783014,186.244810,701.776894
3.770000,1.030194,0.783219,186.476582,701.829847
3.780000,1.030081,0.783421,186.706099,701.879984
3.790000,1.029968,0.783619,186.933110,701.927338
3.800000,1.029855,0.783814,187.157369,701.971944
3.810000,1.029741,0.784006,187.378631,702.013841
3.820000,1.029628,0.784193,187.596658,702.053071
3.830000,1.029516,0.784377,187.811215,702.089680
3.840000,1.029404,0.784557,188.022071,702.123715
3.850000,1.029293,0.784732,188.229002,702.155223
3.860000,1.029182,0.784904,188.431787,702.184256
3.870000,1.029072,0.785071,188.630213,702.210865
3.880000,1.028964,0.785233,188.824069,702.235103
3.890000,1.028856,0.785391,189.013153,702.257020
3.900000,1.028750,0.785544,189.197268,702.276668
3.910000,1.028645,0.785693,189.376224,702.294095
3.920000,1.028542,0.785837,189.549835,702.309352
3.930000,1.028440,0.785975,189.717922,702.322488
3.940000,1.028340,0.786109,189.880314,702.333558
3.950000,1.028242,0.786238,190.036844,702.342612
3.960000,1.028145,0.786361,190.187356,702.349697
3.970000,1.028051,0.786479,190.331698,702.354860
