"b:tnow in s","s:ut in p.u.","s:cur1 in p.u.","s:Q1 in Mvar","s:P1 in MW"
0.000000,1.009837,0.812445,234.999932,699.999933
0.010000,1.017928,0.748477,217.645068,650.248530
0.020000,1.017870,0.749477,217.910219,651.084870
0.030000,1.017753,0.750407,218.140508,651.822942
0.040000,1.017594,0.751302,218.361652,652.500221
0.050000,1.017405,0.752188,218.591500,653.143217
0.060000,1.017193,0.753080,218.842334,653.770395
0.070000,1.016966,0.753993,219.122504,654.394311
0.080000,1.016724,0.754933,219.437586,655.023181
0.090000,1.016472,0.755905,219.791209,655.662020
0.100000,1.016209,0.756913,220.185636,656.313494
0.110000,1.007397,0.823712,238.963836,707.561682
0.120000,1.007149,0.823844,239.164448,707.426100
0.130000,1.006950,0.824098,239.463167,707.412210
0.140000,1.006782,0.824433,239.826630,707.477622
0.150000,1.006634,0.824817,240.231291,707.591316
0.160000,1.006498,0.825226,240.660526,707.730592
0.170000,1.006369,0.825644,241.102594,707.878823
0.180000,1.006243,0.826058,241.549168,708.023891
0.190000,1.006119,0.826458,241.994324,708.157029
0.200000,1.005995,0.826836,242.433837,708.271914
0.210000,1.005871,0.827189,242.864673,708.364055
0.220000,1.005747,0.827511,243.284627,708.430332
0.230000,1.005621,0.827801,243.692079,708.468666
0.240000,1.005495,0.828056,244.085819,708.477771
0.250000,1.005369,0.828274,244.464925,708.456969
0.260000,1.005243,0.828456,244.828678,708.406058
0.270000,1.005118,0.828601,245.176508,708.325210
0.280000,1.004994,0.828708,245.507948,708.214896
0.290000,1.004870,0.828778,245.822614,708.075829
0.300000,1.004749,0.828812,246.120180,707.908920
0.310000,1.004629,0.828810,246.400371,707.715245
0.320000,1.004512,0.828774,246.662951,707.496015
0.330000,1.004397,0.828703,246.907720,707.252557
0.340000,1.004285,0.828600,247.134511,706.986293
0.350000,1.004177,0.828466,247.343183,706.698726
0.360000,1.004071,0.828301,247.533626,706.391433
0.370000,1.003970,0.828108,247.705753,706.066047
0.380000,1.003873,0.827888,247.859507,705.724243
0.390000,1.003779,0.827642,247.994855,705.367738
0.400000,1.003691,0.827373,248.111793,704.998271
0.410000,1.003607,0.827081,248.210339,704.617600
0.420000,1.003527,0.826768,248.290538,704.227496
0.430000,1.003453,0.826437,248.352461,703.829729
0.440000,1.003384,0.826088,248.396202,703.426063
0.450000,1.003320,0.825724,248.421880,703.018251
0.460000,1.003262,0.825346,248.429637,702.608024
0.470000,1.003210,0.824957,248.419640,702.197086
0.480000,1.003164,0.824557,248.392078,701.787110
0.490000,1.003123,0.824148,248.347161,701.379725
0.500000,1.003089,0.823732,248.285121,700.976518
0.510000,1.003060,0.823311,248.206214,700.579021
0.520000,1.003039,0.822886,248.110712,700.188713
0.530000,1.003023,0.822459,247.998910,699.807007
0.540000,1.003014,0.822031,247.871121,699.435251
0.550000,1.003012,0.821603,247.727675,699.074725
0.560000,1.003016,0.821178,247.568921,698.726628
0.570000,1.003027,0.820755,247.395225,698.392087
0.580000,1.003045,0.820337,247.206968,698.072141
0.590000,1.003069,0.819924,247.004546,697.767749
0.600000,1.003101,0.819518,246.788370,697.479780
0.610000,1.003139,0.819119,246.558862,697.209014
0.620000,1.003184,0.818729,246.316460,696.956143
0.630000,1.003236,0.818347,246.061612,696.721762
0.640000,1.003295,0.817976,245.794775,696.506377
0.650000,1.003361,0.817615,245.516417,696.310398
0.660000,1.003433,0.817266,245.227016,696.134143
0.670000,1.003513,0.816928,244.927056,695.977835
0.680000,1.003599,0.816601,244.617029,695.841605
0.690000,1.003691,0.816287,244.297432,695.725494
0.700000,1.003790,0.815986,243.968769,695.629450
0.710000,1.003896,0.815697,243.631546,695.553336
0.720000,1.004008,0.815421,243.286273,695.496925
0.730000,1.004127,0.815157,242.933465,695.459911
0.740000,1.004251,0.814906,242.573634,695.441904
0.750000,1.004382,0.814667,242.207296,695.442436
0.760000,1.004519,0.814440,241.834966,695.460967
0.770000,1.004661,0.814225,241.457159,695.496886
0.780000,1.004809,0.814021,241.074385,695.549513
0.790000,1.004963,0.813829,240.687155,695.618108
0.800000,1.005122,0.813646,240.295977,695.701874
0.810000,1.005286,0.813474,239.901352,695.799956
0.820000,1.005455,0.813310,239.503779,695.911455
0.830000,1.005628,0.813156,239.103751,696.035426
0.840000,1.005806,0.813009,238.701756,696.170886
0.850000,1.005989,0.812870,238.298276,696.316817
0.860000,1.006176,0.812737,237.893783,696.472175
0.870000,1.006366,0.812609,237.488745,696.635890
0.880000,1.006561,0.812487,237.083621,696.806876
0.890000,1.006758,0.812369,236.678861,696.984033
0.900000,1.006959,0.812254,236.274906,697.166255
0.910000,1.007163,0.812141,235.872190,697.352432
0.920000,1.007370,0.812031,235.471138,697.541454
0.930000,1.007579,0.811921,235.072163,697.732223
0.940000,1.007790,0.811811,234.675668,697.923657
0.950000,1.008003,0.811701,234.282045,698.114690
0.960000,1.008218,0.811589,233.891677,698.304279
0.970000,1.008435,0.811476,233.504936,698.491408
0.980000,1.008652,0.811359,233.122187,698.675095
0.990000,1.008870,0.811239,232.743783,698.854389
1.000000,1.009089,0.811115,232.370067,699.028384
1.010000,1.009308,0.810986,232.001375,699.196214
1.020000,1.009527,0.810853,231.638031,699.357061
1.030000,1.009746,0.810713,231.280351,699.510157
1.040000,1.009965,0.810567,230.928642,699.654784
1.050000,1.010183,0.810415,230.583203,699.790278
1.060000,1.010399,0.810256,230.244320,699.916036
1.070000,1.010615,0.810090,229.912272,700.031520
1.080000,1.010828,0.809917,229.587325,700.136255
1.090000,1.011040,0.809736,229.269740,700.229833
1.100000,1.011250,0.809548,228.959770,700.311909
1.110000,1.011457,0.809353,228.657657,700.382203
1.120000,1.011662,0.809149,228.363639,700.440502
1.130000,1.011864,0.808939,228.077944,700.486661
1.140000,1.012063,0.808721,227.800793,700.520601
1.150000,1.012258,0.808497,227.532397,700.542310
1.160000,1.012450,0.808266,227.272963,700.551840
1.170000,1.012638,0.808028,227.022690,700.549309
1.180000,1.012822,0.807785,226.781767,700.534898
1.190000,1.013002,0.807536,226.550386,700.508839
1.200000,1.013177,0.807283,226.328723,700.471430
1.210000,1.013347,0.807025,226.116945,700.423034
1.220000,1.013513,0.806764,225.915211,700.364072
1.230000,1.013674,0.806500,225.723677,700.295013
1.240000,1.013829,0.806233,225.542492,700.216377
1.250000,1.013979,0.805965,225.371799,700.128727
1.260000,1.014124,0.805696,225.211733,700.032674
1.270000,1.014262,0.805428,225.062423,699.928863
1.280000,1.014395,0.805160,224.923995,699.817978
1.290000,1.014522,0.804895,224.796563,699.700735
1.300000,1.014643,0.804632,224.680237,699.577877
1.310000,1.014757,0.804373,224.575119,699.450170
1.320000,1.014865,0.804118,224.481305,699.318404
1.330000,1.014967,0.803869,224.398881,699.183382
1.340000,1.015062,0.803627,224.327928,699.045919
1.350000,1.015150,0.803392,224.268516,698.906841
1.360000,1.015232,0.803166,224.220710,698.766974
1.370000,1.015307,0.802949,224.184564,698.627145
1.380000,1.015375,0.802742,224.160126,698.488179
1.390000,1.015436,0.802547,224.147432,698.350890
1.400000,1.015490,0.802363,224.146511,698.216079
1.410000,1.015537,0.802192,224.157383,698.084535
1.420000,1.015577,0.802035,224.180056,697.957022
1.430000,1.015611,0.801893,224.214532,697.834286
1.440000,1.015637,0.801766,224.260798,697.717043
1.450000,1.015656,0.801654,224.318833,697.605979
1.460000,1.015668,0.801560,224.388606,697.501749
1.470000,1.015673,0.801482,224.470074,697.404971
1.480000,1.015672,0.801422,224.563181,697.316225
1.490000,1.015663,0.801381,224.667861,697.236050
1.500000,1.015647,0.801358,224.784037,697.164940
1.510000,1.015625,0.801354,224.911619,697.103348
1.520000,1.015596,0.801370,225.050503,697.051677
1.530000,1.015560,0.801406,225.200574,697.010283
1.540000,1.015518,0.801461,225.361704,696.979473
1.550000,1.015469,0.801537,225.533753,696.959501
1.560000,1.015413,0.801633,225.716565,696.950573
1.570000,1.015352,0.801749,225.909974,696.952842
1.580000,1.015284,0.801886,226.113799,696.966410
1.590000,1.015210,0.802043,226.327845,696.991325
1.600000,1.015130,0.802219,226.551904,697.027586
1.610000,1.015044,0.802416,226.785755,697.075139
1.620000,1.014952,0.802632,227.029164,697.133881
1.630000,1.014855,0.802867,227.281881,697.203661
1.640000,1.014752,0.803121,227.543645,697.284276
1.650000,1.014644,0.803394,227.814181,697.375481
1.660000,1.014531,0.803684,228.093200,697.476982
1.670000,1.014413,0.803992,228.380402,697.588444
1.680000,1.014289,0.804316,228.675472,697.709492
1.690000,1.014161,0.804656,228.978085,697.839707
1.700000,1.014029,0.805012,229.287900,697.978640
1.710000,1.013892,0.805382,229.604569,698.125801
1.720000,1.013751,0.805766,229.927728,698.280672
1.730000,1.013606,0.806163,230.257005,698.442706
1.740000,1.013457,0.806572,230.592017,698.611327
1.750000,1.013304,0.806993,230.932369,698.785937
1.760000,1.013148,0.807423,231.277658,698.965917
1.770000,1.012989,0.807863,231.627472,699.150630
1.780000,1.012826,0.808312,231.981388,699.339424
1.790000,1.012661,0.808767,232.338978,699.531635
1.800000,1.012493,0.809230,232.699806,699.726591
1.810000,1.012322,0.809697,233.063427,699.923611
1.820000,1.012149,0.810169,233.429394,700.122015
1.830000,1.011974,0.810645,233.797250,700.321121
1.840000,1.011797,0.811122,234.166538,700.520249
1.850000,1.011618,0.811601,234.536794,700.718724
1.860000,1.011438,0.812081,234.907553,700.915882
1.870000,1.011257,0.812559,235.278345,701.111068
1.880000,1.011074,0.813036,235.648703,701.303640
1.890000,1.010890,0.813511,236.018155,701.492971
1.900000,1.010706,0.813981,236.386236,701.678446
1.910000,1.010522,0.814447,236.752477,701.859473
1.920000,1.010337,0.814908,237.116407,702.035490
1.930000,1.010152,0.815362,237.477559,702.205960
1.940000,1.009967,0.815809,237.835470,702.370369
1.950000,1.009782,0.816247,238.189683,702.528234
1.960000,1.009598,0.816677,238.539744,702.679096
1.970000,1.009415,0.817097,238.885207,702.822532
1.980000,1.009233,0.817507,239.225633,702.958145
1.990000,1.009051,0.817905,239.560591,703.085576
2.000000,1.008872,0.818292,239.889657,703.204495
2.010000,1.008693,0.818666,240.212416,703.314608
2.020000,1.008517,0.819027,240.528463,703.415657
2.030000,1.008342,0.819375,240.837401,703.507419
2.040000,1.008170,0.819709,241.138847,703.589700
2.050000,1.008000,0.820028,241.432431,703.662337
2.060000,1.007832,0.820332,241.717790,703.725208
2.070000,1.007667,0.820621,241.994567,703.778238
2.080000,1.007505,0.820894,242.262423,703.821389
2.090000,1.007346,0.821151,242.521031,703.854655
2.100000,1.007190,0.821392,242.770078,703.878062
2.110000,1.007037,0.821617,243.009266,703.891673
2.120000,1.006888,0.821825,243.238310,703.895580
2.130000,1.006743,0.822017,243.456941,703.889910
2.140000,1.006601,0.822192,243.664905,703.874819
2.150000,1.006464,0.822350,243.861961,703.850494
2.160000,1.006330,0.822491,244.047885,703.817150
2.170000,1.006201,0.822616,244.222470,703.775028
2.180000,1.006076,0.822724,244.385524,703.724397
2.190000,1.005956,0.822816,244.536871,703.665549
2.200000,1.005841,0.822891,244.676352,703.598798
2.210000,1.005730,0.822951,244.803824,703.524479
2.220000,1.005624,0.822994,244.919164,703.442948
2.230000,1.005524,0.823022,245.022261,703.354575
2.240000,1.005428,0.823034,245.113025,703.259748
2.250000,1.005338,0.823031,245.191385,703.158866
2.260000,1.005253,0.823014,245.257283,703.052342
2.270000,1.005173,0.822982,245.310680,702.940597
2.280000,1.005099,0.822936,245.351552,702.824062
2.290000,1.005031,0.822876,245.379894,702.703176
2.300000,1.004968,0.822803,245.395716,702.578382
2.310000,1.004910,0.822717,245.399045,702.450125
2.320000,1.004859,0.822619,245.389923,702.318850
2.330000,1.004813,0.822508,245.368410,702.185006
2.340000,1.004774,0.822387,245.334581,702.049034
2.350000,1.004740,0.822254,245.288527,701.911375
2.360000,1.004712,0.822110,245.230352,701.772464
2.370000,1.004690,0.821957,245.160178,701.632728
2.380000,1.004674,0.821794,245.078141,701.492585
2.390000,1.004664,0.821621,244.984390,701.352446
2.400000,1.004660,0.821440,244.879090,701.212707
2.410000,1.004662,0.821251,244.762419,701.073755
2.420000,1.004670,0.821054,244.634567,700.935962
2.430000,1.004684,0.820850,244.495741,700.799683
2.440000,1.004704,0.820639,244.346157,700.665261
2.450000,1.004729,0.820422,244.186044,700.533019
2.460000,1.004761,0.820198,244.015645,700.403265
2.470000,1.004798,0.819970,243.835211,700.276286
2.480000,1.004841,0.819736,243.645008,700.152353
2.490000,1.004890,0.819497,243.445310,700.031714
2.500000,1.004945,0.819255,243.236402,699.914599
2.510000,1.005005,0.819008,243.018579,699.801216
2.520000,1.005070,0.818759,242.792143,699.691755
2.530000,1.005141,0.818506,242.557408,699.586381
2.540000,1.005218,0.818250,242.314696,699.485240
2.550000,1.005299,0.817992,242.064333,699.388458
2.560000,1.005386,0.817732,241.806657,699.296136
2.570000,1.005477,0.817471,241.542010,699.208358
2.580000,1.005574,0.817208,241.270741,699.125185
2.590000,1.005675,0.816943,240.993206,699.046659
2.600000,1.005781,0.816678,240.709764,698.972800
2.610000,1.005891,0.816412,240.420780,698.903610
2.620000,1.006006,0.816146,240.126624,698.839073
2.630000,1.006125,0.815880,239.827669,698.779152
2.640000,1.006248,0.815614,239.524290,698.723795
2.650000,1.006375,0.815348,239.216868,698.672931
2.660000,1.006506,0.815082,238.905783,698.626475
2.670000,1.006640,0.814817,238.591418,698.584325
2.680000,1.006778,0.814553,238.274159,698.546364
2.690000,1.006919,0.814289,237.954391,698.512465
2.700000,1.007063,0.814027,237.632500,698.482483
2.710000,1.007210,0.813766,237.308870,698.456268
2.720000,1.007360,0.813506,236.983885,698.433657
2.730000,1.007512,0.813247,236.657928,698.414481
2.740000,1.007667,0.812990,236.331382,698.398560
2.750000,1.007824,0.812735,236.004624,698.385710
2.760000,1.007983,0.812481,235.678034,698.375739
2.770000,1.008144,0.812229,235.351984,698.368452
2.780000,1.008306,0.811979,235.026847,698.363651
2.790000,1.008470,0.811731,234.702989,698.361134
2.800000,1.008635,0.811484,234.380776,698.360700
2.810000,1.008801,0.811240,234.060568,698.362148
2.820000,1.008968,0.810998,233.742720,698.365275
2.830000,1.009135,0.810758,233.427582,698.369883
2.840000,1.009303,0.810521,233.115501,698.375777
2.850000,1.009471,0.810286,232.806816,698.382765
2.860000,1.009639,0.810053,232.501862,698.390660
2.870000,1.009807,0.809823,232.200967,698.399277
2.880000,1.009974,0.809595,231.904456,698.408437
2.890000,1.010141,0.809371,231.612641,698.417971
2.900000,1.010307,0.809149,231.325829,698.427724
2.910000,1.010472,0.808929,231.044319,698.437551
2.920000,1.010636,0.808713,230.768401,698.447317
2.930000,1.010799,0.808500,230.498359,698.456897
2.940000,1.010959,0.808290,230.234472,698.466175
2.950000,1.011119,0.808084,229.977006,698.475048
2.960000,1.011276,0.807881,229.726222,698.483425
2.970000,1.011431,0.807681,229.482372,698.491227
2.980000,1.011584,0.807486,229.245697,698.498385
2.990000,1.011734,0.807294,229.016432,698.504846
3.000000,1.011882,0.807107,228.794801,698.510568
3.010000,1.012026,0.806923,228.581019,698.515522
3.020000,1.012168,0.806744,228.375294,698.519693
3.030000,1.012307,0.806570,228.177820,698.523075
3.040000,1.012442,0.806400,227.988787,698.525680
3.050000,1.012574,0.806236,227.808370,698.527526
3.060000,1.012703,0.806076,227.636740,698.528644
3.070000,1.012827,0.805922,227.474058,698.529075
3.080000,1.012948,0.805774,227.320471,698.528870
3.090000,1.013065,0.805631,227.176117,698.528095
3.100000,1.013177,0.805495,227.041123,698.526828
3.110000,1.013286,0.805364,226.915607,698.525155
3.120000,1.013390,0.805240,226.799676,698.523171
3.130000,1.013489,0.805123,226.693430,698.520977
3.140000,1.013584,0.805012,226.596958,698.518682
3.150000,1.013675,0.804909,226.510338,698.516402
3.160000,1.013760,0.804813,226.433639,698.514257
3.170000,1.013841,0.804724,226.366920,698.512373
3.180000,1.013917,0.804643,226.310229,698.510879
3.190000,1.013988,0.804570,226.263604,698.509908
3.200000,1.014054,0.804505,226.227073,698.509595
3.210000,1.014114,0.804449,226.200653,698.510076
3.220000,1.014170,0.804401,226.184351,698.511488
3.230000,1.014220,0.804361,226.178165,698.513969
3.240000,1.014265,0.804331,226.182079,698.517653
3.250000,1.014305,0.804309,226.196071,698.522675
3.260000,1.014339,0.804297,226.220106,698.529166
3.270000,1.014368,0.804294,226.254141,698.537251
3.280000,1.014392,0.804300,226.298117,698.547058
3.290000,1.014410,0.804316,226.351971,698.558703
3.300000,1.014423,0.804341,226.415626,698.572300
3.310000,1.014431,0.804376,226.488999,698.587954
3.320000,1.014433,0.804421,226.571992,698.605764
3.330000,1.014430,0.804476,226.664499,698.625822
3.340000,1.014421,0.804541,226.766405,698.648211
3.350000,1.014407,0.804615,226.877583,698.673006
3.360000,1.014388,0.804699,226.997897,698.700273
3.370000,1.014364,0.804794,227.127202,698.730068
3.380000,1.014334,0.804898,227.265342,698.762435
3.390000,1.014299,0.805011,227.412151,698.797411
3.400000,1.014259,0.805135,227.567456,698.835021
3.410000,1.014214,0.805268,227.731073,698.875278
3.420000,1.014165,0.805411,227.902808,698.918187
3.430000,1.014110,0.805563,228.082459,698.963739
3.440000,1.014050,0.805724,228.269815,699.011916
3.450000,1.013986,0.805894,228.464657,699.062687
3.460000,1.013917,0.806073,228.666757,699.116012
3.470000,1.013843,0.806261,228.875877,699.171839
3.480000,1.013765,0.806458,229.091774,699.230105
3.490000,1.013683,0.806662,229.314195,699.290738
3.500000,1.013596,0.806875,229.542879,699.353653
3.510000,1.013505,0.807095,229.777559,699.418758
3.520000,1.013410,0.807323,230.017961,699.485949
3.530000,1.013312,0.807558,230.263804,699.555115
3.540000,1.013209,0.807800,230.514798,699.626134
3.550000,1.013103,0.808048,230.770651,699.698877
3.560000,1.012993,0.808303,231.031061,699.773207
3.570000,1.012880,0.808563,231.295724,699.848980
3.580000,1.012763,0.808829,231.564328,699.926044
3.590000,1.012644,0.809100,231.836557,700.004241
3.600000,1.012521,0.809375,232.112092,700.083410
3.610000,1.012396,0.809655,232.390607,700.163383
3.620000,1.012268,0.809938,232.671773,700.243986
3.630000,1.012138,0.810225,232.955260,700.325045
3.640000,1.012005,0.810516,233.240733,700.406381
3.650000,1.011870,0.810808,233.527854,700.487812
3.660000,1.011733,0.811103,233.816284,700.569157
3.670000,1.011594,0.811400,234.105681,700.650232
3.680000,1.011453,0.811697,234.395703,700.730853
3.690000,1.011311,0.811996,234.686008,700.810835
3.700000,1.011167,0.812295,234.976254,700.889992
3.710000,1.011022,0.812594,235.266097,700.968139
3.720000,1.010877,0.812893,235.555194,701.045098
3.730000,1.010730,0.813191,235.843201,701.120694
3.740000,1.010582,0.813487,236.129776,701.194756
3.750000,1.010434,0.813781,236.414578,701.267118
3.760000,1.010286,0.814074,236.697271,701.337617
3.770000,1.010138,0.814363,236.977522,701.406095
3.780000,1.009989,0.814650,237.254999,701.472400
3.790000,1.009841,0.814933,237.529375,701.536385
3.800000,1.009693,0.815212,237.800329,701.597910
3.810000,1.009545,0.815487,238.067543,701.656843
3.820000,1.009398,0.815758,238.330702,701.713057
3.830000,1.009252,0.816023,238.589501,701.766433
3.840000,1.009107,0.816283,238.843637,701.816862
3.850000,1.008963,0.816537,239.092815,701.864241
3.860000,1.008821,0.816785,239.336745,701.908476
3.870000,1.008680,0.817027,239.575146,701.949482
3.880000,1.008541,0.817262,239.807741,701.987182
3.890000,1.008403,0.817490,240.034266,702.021509
3.900000,1.008267,0.817711,240.254460,702.052400
3.910000,1.008134,0.817924,240.468074,702.079799
3.920000,1.008003,0.818129,240.674865,702.103664
3.930000,1.007874,0.818326,240.874597,702.123966
3.940000,1.007748,0.818515,241.067043,702.140685
3.950000,1.007624,0.818695,241.251987,702.153814
3.960000,1.007504,0.818867,241.429221,702.163349
3.970000,1.007386,0.819030,241.598551,702.169298
3.980000,1.007271,0.819183,241.759789,702.171675
3.990000,1.007160,0.819327,241.912760,702.170506
4.000000,1.007052,0.819462,242.057299,702.165821
4.010000,1.006947,0.819588,242.193250,702.157660
4.020000,1.006847,0.819704,242.320471,702.146072
4.030000,1.006749,0.819810,242.438828,702.131112
4.040000,1.006656,0.819906,242.548201,702.112842
4.050000,1.006566,0.819993,242.648479,702.091332
