"b:tnow in s","s:ut in p.u.","s:cur1 in p.u.","s:Q1 in Mvar","s:P1 in MW"
0.000000,1.030000,0.798794,176.523596,719.133173
0.010000,1.024368,0.834281,189.834794,745.354835
0.020000,1.024235,0.834375,189.744705,745.363870
0.030000,1.024149,0.834466,189.691031,745.398088
0.040000,1.024095,0.834548,189.666308,745.440292
0.050000,1.024062,0.834614,189.664784,745.477963
0.060000,1.024041,0.834661,189.682020,745.501863
0.070000,1.024028,0.834684,189.714584,745.505037
0.080000,1.024018,0.834680,189.759817,745.482117
0.090000,1.024008,0.834647,189.815640,745.428830
0.100000,1.023997,0.834581,189.880420,745.341655
0.110000,1.023984,0.834481,189.952855,745.217593
0.120000,1.023967,0.834344,190.031896,745.054000
0.130000,1.023946,0.834168,190.116677,744.848483
0.140000,1.023920,0.833951,190.206475,744.598829
0.150000,1.023890,0.833689,190.300670,744.302958
0.160000,1.023855,0.833382,190.398719,743.958903
0.170000,1.023815,0.833028,190.500139,743.564789
0.180000,1.023771,0.832623,190.604490,743.118834
0.190000,1.023722,0.832167,190.711369,742.619347
0.200000,1.023668,0.831657,190.820398,742.064729
0.210000,1.023610,0.831092,190.931223,741.453488
0.220000,1.023547,0.830469,191.043510,740.784237
0.230000,1.023480,0.829789,191.156942,740.055711
0.240000,1.023408,0.829049,191.271220,739.266770
0.250000,1.023332,0.828248,191.386062,738.416411
0.260000,1.023252,0.827385,191.501201,737.503774
0.270000,1.023167,0.826460,191.616389,736.528150
0.280000,1.023078,0.825471,191.731395,735.488987
0.290000,1.022985,0.824418,191.846008,734.385899
0.300000,1.022888,0.823301,191.960036,733.218665
0.310000,1.022786,0.822120,192.073309,731.987239
0.320000,1.022680,0.820875,192.185679,730.691749
0.330000,1.022570,0.819566,192.297021,729.332501
0.340000,1.022455,0.818194,192.407234,727.909979
0.350000,1.022336,0.816759,192.516241,726.424844
0.360000,1.022213,0.815263,192.623987,724.877939
0.370000,1.022085,0.813706,192.730442,723.270283
0.380000,1.021952,0.812089,192.835600,721.603070
0.390000,1.021815,0.810415,192.939480,719.877666
0.400000,1.021673,0.808685,193.042121,718.095608
0.410000,1.021526,0.806900,193.143588,716.258592
0.420000,1.021374,0.805064,193.243969,714.368478
0.430000,1.021218,0.803177,193.343369,712.427276
0.440000,1.021056,0.801243,193.441916,710.437144
0.450000,1.020888,0.799263,193.539755,708.400379
0.460000,1.020716,0.797242,193.637048,706.319410
0.470000,1.020538,0.795180,193.733972,704.196793
0.480000,1.020355,0.793082,193.830726,702.035192
0.490000,1.020166,0.790949,193.927523,699.837377
0.500000,1.019971,0.788787,194.024590,697.606210
0.510000,1.019771,0.786596,194.122149,695.344634
0.520000,1.019564,0.784382,194.220255,693.055558
0.530000,1.019352,0.782146,194.319077,690.742054
0.540000,1.019134,0.779894,194.418998,688.407368
0.550000,1.018910,0.777627,194.520297,686.054716
0.560000,1.018680,0.775349,194.623234,683.687335
0.570000,1.018444,0.773064,194.728070,681.308481
0.580000,1.018202,0.770776,194.835057,678.921421
0.590000,1.017955,0.768487,194.944443,676.529423
0.600000,1.017701,0.766202,195.056469,674.135745
0.610000,1.017442,0.763923,195.171365,671.743623
0.620000,1.017177,0.761654,195.289354,669.356266
0.630000,1.016907,0.759398,195.410644,666.976841
0.640000,1.016631,0.757159,195.535432,664.608464
0.650000,1.016350,0.754939,195.663903,662.254196
0.660000,1.016064,0.752742,195.796226,659.917026
0.670000,1.015772,0.750571,195.932541,657.599861
0.680000,1.015476,0.748428,196.072725,655.305382
0.690000,1.015176,0.746316,196.216969,653.036398
0.700000,1.014870,0.744239,196.365477,650.795615
0.710000,1.014561,0.742197,196.518346,648.585574
0.720000,1.014248,0.740194,196.675671,646.408689
0.730000,1.013931,0.738233,196.837640,644.267150
0.740000,1.013611,0.736314,197.004463,642.162957
0.750000,1.013288,0.734440,197.176229,640.098037
0.760000,1.012962,0.732612,197.352858,638.074310
0.770000,1.012633,0.730833,197.533627,636.093382
0.780000,1.012302,0.729103,197.718278,634.157017
0.790000,1.011969,0.727424,197.907063,632.267041
0.800000,1.011634,0.725797,198.099905,630.424931
0.810000,1.011298,0.724224,198.296685,628.632004
0.820000,1.010961,0.722706,198.497255,626.889443
0.830000,1.010625,0.721242,198.701441,625.198286
0.840000,1.010288,0.719835,198.909048,623.559442
0.850000,1.009952,0.718483,199.119857,621.973682
0.860000,1.009616,0.717188,199.333626,620.441653
0.870000,1.009282,0.715950,199.550093,618.963871
0.880000,1.008950,0.714768,199.768976,617.540735
0.890000,1.008620,0.713643,199.989973,616.172524
0.900000,1.008292,0.712575,200.212764,614.859403
0.910000,1.007968,0.711563,200.437011,613.601431
0.920000,1.007646,0.710606,200.662361,612.398563
0.930000,1.007329,0.709705,200.888444,611.250655
0.940000,1.007016,0.708858,201.114876,610.157471
0.950000,1.006707,0.708065,201.341261,609.118689
0.960000,1.006403,0.707325,201.567191,608.133903
0.970000,1.006105,0.706637,201.792247,607.202634
0.980000,1.005812,0.706000,202.016002,606.324333
0.990000,1.005525,0.705413,202.238018,605.498388
1.000000,1.005245,0.704875,202.457855,604.724128
1.010000,1.008778,0.641537,197.696945,547.874553
1.020000,1.008241,0.640334,197.698841,546.382415
1.030000,1.007710,0.639246,197.627449,545.033957
1.040000,1.007200,0.638278,197.492821,543.836577
1.050000,1.006718,0.637430,197.302347,542.794642
1.060000,1.006272,0.636705,197.061515,541.910613
1.070000,1.005864,0.636102,196.774479,541.185803
1.080000,1.005498,0.635622,196.444463,540.620885
1.090000,1.005175,0.635267,196.074069,540.216204
1.100000,1.004895,0.635036,195.665488,539.971983
1.110000,1.004659,0.634931,195.220664,539.888436
1.120000,1.004466,0.634953,194.741403,539.965832
1.130000,1.004316,0.635104,194.229453,540.204518
1.140000,1.004209,0.635386,193.686564,540.604921
1.150000,1.004143,0.635801,193.114518,541.167537
1.160000,1.004118,0.636350,192.515164,541.892910
1.170000,1.004134,0.637037,191.890428,542.781609
1.180000,1.004188,0.637862,191.242323,543.834197
1.190000,1.004280,0.638829,190.572958,545.051210
1.200000,1.004409,0.639940,189.884536,546.433125
1.210000,1.004574,0.641197,189.179352,547.980336
1.220000,1.004774,0.642601,188.459793,549.693132
1.230000,1.005007,0.644156,187.728332,551.571668
1.240000,1.005273,0.645863,186.987524,553.615950
1.250000,1.005570,0.647723,186.239997,555.825810
1.260000,1.005896,0.649739,185.488447,558.200888
1.270000,1.006252,0.651911,184.735634,560.740612
1.280000,1.006634,0.654240,183.984366,563.444186
1.290000,1.007042,0.656728,183.237498,566.310568
1.300000,1.007474,0.659375,182.497920,569.338457
1.310000,1.007930,0.662180,181.768547,572.526282
1.320000,1.008406,0.665145,181.052310,575.872185
1.330000,1.008903,0.668268,180.352147,579.374012
1.340000,1.009417,0.671549,179.670991,583.029299
1.350000,1.009948,0.674987,179.011758,586.835268
1.360000,1.010494,0.678579,178.377336,590.788813
1.370000,1.011054,0.682325,177.770574,594.886498
1.380000,1.011625,0.686221,177.194269,599.124546
1.390000,1.012207,0.690265,176.651151,603.498842
1.400000,1.012796,0.694454,176.143875,608.004924
1.410000,1.013393,0.698784,175.675007,612.637985
1.420000,1.013994,0.703251,175.247009,617.392870
1.430000,1.014599,0.707851,174.862226,622.264085
1.440000,1.015205,0.712579,174.522875,627.245795
1.450000,1.015811,0.717430,174.231024,632.331832
1.460000,1.016416,0.722399,173.988589,637.515708
1.470000,1.017017,0.727478,173.797347,642.790594
1.480000,1.017613,0.732662,173.659793,648.148653
1.490000,1.018201,0.737943,173.576876,653.581028
1.500000,1.018780,0.743315,173.548549,659.080515
1.510000,1.019349,0.748769,173.576270,664.639985
1.520000,1.019907,0.754299,173.660750,670.251458
1.530000,1.020452,0.759897,173.802165,675.906509
1.540000,1.020983,0.765554,174.000435,681.596549
1.550000,1.021499,0.771262,174.255914,687.313237
1.560000,1.021998,0.777013,174.568349,693.047887
1.570000,1.022480,0.782798,174.937214,698.791680
1.580000,1.022944,0.788608,175.361713,704.535721
1.590000,1.023389,0.794434,175.840555,710.270943
1.600000,1.023814,0.800266,176.371668,715.987993
1.610000,1.024218,0.806095,176.953996,721.678334
1.620000,1.024602,0.811913,177.585868,727.333178
1.630000,1.024964,0.817710,178.265246,732.943745
1.640000,1.025304,0.823476,178.989835,738.501368
1.650000,1.025623,0.829203,179.757096,743.997529
1.660000,1.025920,0.834881,180.564313,749.423838
1.670000,1.026195,0.840501,181.408554,754.772076
1.680000,1.026448,0.846054,182.285978,760.033926
1.690000,1.026680,0.851531,183.193603,765.201941
1.700000,1.026890,0.856924,184.128839,770.268210
1.710000,1.027079,0.862223,185.086672,775.225352
1.720000,1.027248,0.867420,186.062493,780.066548
1.730000,1.027396,0.872508,187.053383,784.786181
1.740000,1.027526,0.877479,188.055534,789.378330
1.750000,1.027638,0.882326,189.065181,793.837236
1.760000,1.027734,0.887042,190.078176,798.157725
1.770000,1.027814,0.891620,191.090301,802.335095
1.780000,1.027879,0.896052,192.097421,806.364980
1.790000,1.027932,0.900335,193.095423,810.243395
1.800000,1.027973,0.904461,194.080241,813.966739
1.810000,1.028003,0.908425,195.047873,817.531788
1.820000,1.028025,0.912222,195.994417,820.935673
1.830000,1.028039,0.915847,196.916067,824.175889
1.840000,1.028046,0.919296,197.809111,827.250320
1.850000,1.028049,0.922566,198.670014,830.157150
1.860000,1.028049,0.925651,199.495407,832.894867
1.870000,1.028047,0.928550,200.282128,835.462259
1.880000,1.028044,0.931258,201.027065,837.858521
1.890000,1.028043,0.933774,201.727246,840.083202
1.900000,1.028044,0.936095,202.379980,842.136072
1.910000,1.028049,0.938220,202.982804,844.017132
1.920000,1.028059,0.940146,203.533486,845.726607
1.930000,1.028075,0.941873,204.030033,847.264921
1.940000,1.028099,0.943400,204.470694,848.632681
1.950000,1.028132,0.944726,204.853967,849.830655
1.960000,1.028174,0.945850,205.178603,850.859759
1.970000,1.028227,0.946773,205.443605,851.721032
1.980000,1.028292,0.947495,205.648235,852.415626
1.990000,1.028369,0.948017,205.792008,852.944785
2.000000,1.028458,0.948338,205.874699,853.309836
2.010000,1.028562,0.948461,205.896332,853.512170
2.020000,1.028679,0.948386,205.857187,853.553233
2.030000,1.028811,0.948114,205.757788,853.434517
2.040000,1.028958,0.947648,205.598905,853.157549
2.050000,1.029119,0.946990,205.381543,852.723887
2.060000,1.029295,0.946141,205.106940,852.135112
2.070000,1.029486,0.945103,204.776557,851.392823
2.080000,1.029691,0.943880,204.392070,850.498643
2.090000,1.029910,0.942473,203.955365,849.454207
2.100000,1.030142,0.940887,203.468524,848.261174
2.110000,1.030388,0.939123,202.933814,846.921222
2.120000,1.030646,0.937185,202.353684,845.436059
2.130000,1.030916,0.935076,201.730742,843.807420
2.140000,1.031197,0.932800,201.067753,842.037084
2.150000,1.031487,0.930361,200.367621,840.126872
2.160000,1.031786,0.927763,199.633374,838.078661
2.170000,1.032093,0.925009,198.868158,835.894394
2.180000,1.032405,0.922104,198.075213,833.576085
2.190000,1.032723,0.919052,197.257864,831.125837
2.200000,1.033044,0.915858,196.419507,828.545845
2.210000,1.033367,0.912527,195.563589,825.838410
2.220000,1.033691,0.909063,194.693594,823.005955
2.230000,1.034014,0.905472,193.813028,820.051025
2.240000,1.034334,0.901758,192.925402,816.976307
2.250000,1.034650,0.897927,192.034216,813.784634
2.260000,1.034960,0.893984,191.142942,810.478996
2.270000,1.035262,0.889935,190.255010,807.062548
2.280000,1.035556,0.885786,189.373788,803.538615
2.290000,1.035838,0.881542,188.502570,799.910702
2.300000,1.036108,0.877210,187.644560,796.182494
2.310000,1.036364,0.872795,186.802852,792.357866
2.320000,1.036605,0.868304,185.980425,788.440875
2.330000,1.036828,0.863743,185.180119,784.435771
2.340000,1.037032,0.859118,184.404630,780.346989
2.350000,1.037217,0.854435,183.656494,776.179147
2.360000,1.037380,0.849702,182.938075,771.937045
2.370000,1.037521,0.844925,182.251558,767.625657
2.380000,1.037638,0.840109,181.598937,763.250121
2.390000,1.037730,0.835263,180.982008,758.815737
2.400000,1.037797,0.830392,180.402363,754.327949
2.410000,1.037836,0.825503,179.861384,749.792340
2.420000,1.037849,0.820603,179.360237,745.214613
2.430000,1.037833,0.815697,178.899874,740.600584
2.440000,1.037789,0.810794,178.481026,735.956161
2.450000,1.037715,0.805898,178.104207,731.287330
2.460000,1.037613,0.801017,177.769713,726.600142
2.470000,1.037481,0.796156,177.477657,721.900668
2.480000,1.037319,0.791322,177.228168,717.194811
2.490000,1.037128,0.786520,177.020815,712.488720
2.500000,1.036908,0.781757,176.855025,707.788545
2.510000,1.036660,0.777038,176.730155,703.100326
2.520000,1.036382,0.772368,176.645286,698.430107
2.530000,1.036077,0.767754,176.599298,693.783908
2.540000,1.035745,0.763200,176.590958,689.167646
2.550000,1.035387,0.758711,176.618845,684.587172
2.560000,1.035003,0.754292,176.681406,680.048226
2.570000,1.034595,0.749947,176.777274,675.556186
2.580000,1.034164,0.745681,176.904516,671.116583
2.590000,1.033710,0.741498,177.061165,666.734821
2.600000,1.033236,0.737402,177.245245,662.416098
2.610000,1.032741,0.733397,177.454460,658.165068
2.620000,1.032228,0.729484,177.686090,653.985312
2.630000,1.031697,0.725668,177.938345,649.882418
2.640000,1.031150,0.721952,178.209106,645.861171
2.650000,1.030589,0.718338,178.495739,641.925710
2.660000,1.030016,0.714829,178.796048,638.080235
2.670000,1.029432,0.711428,179.108130,634.328870
2.680000,1.028838,0.708137,179.429779,630.675385
2.690000,1.028238,0.704958,179.758870,627.123316
2.700000,1.027632,0.701892,180.093286,623.675992
2.710000,1.027021,0.698940,180.430850,620.336573
2.720000,1.026409,0.696105,180.769419,617.108045
2.730000,1.025796,0.693387,181.106934,613.993195
2.740000,1.025184,0.690787,181.441033,610.994425
2.750000,1.024575,0.688306,181.769433,608.114019
2.760000,1.023970,0.685945,182.090741,605.354489
2.770000,1.023370,0.683704,182.403291,602.717931
2.780000,1.022779,0.681584,182.705458,600.206248
2.790000,1.022196,0.679585,182.995692,597.821179
2.800000,1.021624,0.677707,183.272532,595.564305
2.810000,1.021064,0.675951,183.534607,593.437058
2.820000,1.020516,0.674317,183.780447,591.440628
2.830000,1.019984,0.672803,184.008611,589.576066
2.840000,1.019467,0.671412,184.218324,587.844576
2.850000,1.018967,0.670141,184.408719,586.247071
2.860000,1.018485,0.668992,184.579323,584.784064
2.870000,1.018022,0.667964,184.729820,583.455811
2.880000,1.017579,0.667056,184.859364,582.262843
2.890000,1.017156,0.666267,184.966193,581.205456
2.900000,1.016755,0.665599,185.050136,580.284456
2.910000,1.016376,0.665051,185.111145,579.500382
2.920000,1.016021,0.664622,185.149039,578.853522
2.930000,1.015690,0.664313,185.163732,578.344062
2.940000,1.015383,0.664123,185.155237,577.972095
2.950000,1.015101,0.664053,185.123663,577.737625
2.960000,1.014845,0.664101,185.069218,577.640572
2.970000,1.014614,0.664268,184.992210,577.680774
2.980000,1.014410,0.664554,184.893049,577.857988
2.990000,1.014232,0.664957,184.772239,578.171888
3.000000,1.014081,0.665479,184.630381,578.622070
3.010000,1.013956,0.666119,184.468167,579.208047
3.020000,1.013858,0.666876,184.286381,579.929250
3.030000,1.013786,0.667751,184.085894,580.785025
3.040000,1.013740,0.668743,183.867662,581.774634
3.050000,1.013721,0.669852,183.632726,582.897245
3.060000,1.013728,0.671077,183.382203,584.151939
3.070000,1.013760,0.672418,183.117288,585.537697
3.080000,1.013817,0.673875,182.839250,587.053402
3.090000,1.013899,0.675447,182.549423,588.697832
3.100000,1.014006,0.677134,182.249210,590.469657
3.110000,1.014136,0.678935,181.940072,592.367433
3.120000,1.014288,0.680849,181.623527,594.389599
3.130000,1.014463,0.682875,181.301143,596.534472
3.140000,1.014660,0.685014,180.974537,598.800240
3.150000,1.014877,0.687263,180.645364,601.184959
3.160000,1.015115,0.689622,180.315316,603.686549
3.170000,1.015371,0.692088,179.986114,606.302785
3.180000,1.015646,0.694662,179.659501,609.031300
3.190000,1.015938,0.697341,179.337238,611.869577
3.200000,1.016246,0.700124,179.021094,614.814943
3.210000,1.016569,0.703008,178.712844,617.864569
3.220000,1.016907,0.705993,178.414255,621.015467
3.230000,1.017258,0.709075,178.127085,624.264489
3.240000,1.017620,0.712252,177.852995,627.608278
3.250000,1.017993,0.715522,177.592869,631.042885
3.260000,1.018376,0.718881,177.349052,634.564699
3.270000,1.018766,0.722327,177.123839,638.169623
3.280000,1.019164,0.725857,176.918834,641.853568
3.290000,1.019567,0.729466,176.735259,645.612593
3.300000,1.019976,0.733153,176.574478,649.442514
3.310000,1.020388,0.736913,176.437748,653.338890
3.320000,1.020802,0.740743,176.325966,657.296984
3.330000,1.021218,0.744638,176.240562,661.312286
3.340000,1.021634,0.748594,176.182697,665.380021
3.350000,1.022049,0.752607,176.153377,669.495245
3.360000,1.022463,0.756673,176.153491,673.652892
3.370000,1.022874,0.760787,176.183807,677.847785
3.380000,1.023280,0.764944,176.244962,682.074651
3.390000,1.023682,0.769140,176.337460,686.328130
3.400000,1.024078,0.773368,176.461333,690.602590
3.410000,1.024467,0.777624,176.616475,694.892386
3.420000,1.024849,0.781904,176.803367,699.192238
3.430000,1.025222,0.786201,177.022031,703.496603
3.440000,1.025586,0.790509,177.272297,707.799888
3.450000,1.025940,0.794825,177.553833,712.096493
3.460000,1.026283,0.799142,177.866151,716.380826
3.470000,1.026616,0.803454,178.208609,720.647317
3.480000,1.026937,0.807756,178.580441,724.890413
3.490000,1.027246,0.812043,178.980741,729.104594
3.500000,1.027544,0.816308,179.408381,733.284397
3.510000,1.027828,0.820546,179.861596,737.424198
3.520000,1.028099,0.824751,180.339289,741.519008
3.530000,1.028357,0.828919,180.840093,745.563770
3.540000,1.028602,0.833043,181.362390,749.553441
3.550000,1.028833,0.837117,181.903736,753.481743
3.560000,1.029050,0.841137,182.462699,757.344580
3.570000,1.029254,0.845096,183.037497,761.137820
3.580000,1.029444,0.848992,183.626172,764.857123
3.590000,1.029622,0.852817,184.226648,768.498320
3.600000,1.029788,0.856568,184.836765,772.057409
3.610000,1.029942,0.860239,185.454515,775.530388
3.620000,1.030084,0.863826,186.077476,778.913689
3.630000,1.030215,0.867324,186.703246,782.203938
3.640000,1.030335,0.870730,187.329448,785.397918
3.650000,1.030446,0.874038,187.953696,788.492602
3.660000,1.030548,0.877246,188.573606,791.485148
3.670000,1.030641,0.880348,189.186804,794.372907
3.680000,1.030726,0.883342,189.790941,797.153408
3.690000,1.030804,0.886224,190.383715,799.824355
3.700000,1.030876,0.888990,190.962852,802.383635
3.710000,1.030942,0.891638,191.526124,804.829331
3.720000,1.031004,0.894164,192.071409,807.159656
3.730000,1.031062,0.896565,192.596800,809.372852
3.740000,1.031116,0.898839,193.100232,811.467489
3.750000,1.031169,0.900983,193.579707,813.442353
3.760000,1.031219,0.902995,194.033372,815.296362
3.770000,1.031269,0.904873,194.459503,817.028556
3.780000,1.031320,0.906615,194.856503,818.638099
3.790000,1.031371,0.908219,195.222898,820.124270
3.800000,1.031424,0.909684,195.557347,821.486459
3.810000,1.031479,0.911007,195.858642,822.724160
3.820000,1.031537,0.912189,196.125719,823.836963
3.830000,1.031598,0.913227,196.357653,824.824547
3.840000,1.031664,0.914121,196.553667,825.686674
3.850000,1.031735,0.914870,196.713133,826.423184
3.860000,1.031810,0.915473,196.835573,827.033990
3.870000,1.031892,0.915930,196.920658,827.519070
3.880000,1.031979,0.916241,196.968213,827.878467
3.890000,1.032073,0.916405,196.978213,828.112286
3.900000,1.032174,0.916422,196.950784,828.220686
3.910000,1.032281,0.916293,196.886199,828.203885
3.920000,1.032395,0.916018,196.784880,828.062155
3.930000,1.032517,0.915598,196.647389,827.795823
3.940000,1.032645,0.915032,196.474433,827.405274
3.950000,1.032780,0.914322,196.266850,826.890947
3.960000,1.032922,0.913469,196.025613,826.253345
3.970000,1.033071,0.912474,195.751820,825.493031
3.980000,1.033226,0.911338,195.446690,824.610635
3.990000,1.033386,0.910063,195.111557,823.606861
4.000000,1.033553,0.908650,194.747863,822.482486
4.010000,1.033724,0.907102,194.357152,821.238372
4.020000,1.033900,0.905419,193.941059,819.875467
4.030000,1.034080,0.903604,193.501307,818.394814
4.040000,1.034263,0.901660,193.039695,816.797559
4.050000,1.034449,0.899589,192.558094,815.084953
