"b:tnow in s","s:ut in p.u.","s:cur1 in p.u.","s:Q1 in Mvar","s:P1 in MW"
0.000000,1.030000,0.798794,176.523596,719.133173
0.010000,1.024368,0.834281,189.834794,745.354835
0.020000,1.024235,0.834375,189.744705,745.363870
0.030000,1.024149,0.834466,189.691031,745.398088
0.040000,1.024095,0.834548,189.666308,745.440292
0.050000,1.024062,0.834614,189.664784,745.477963
0.060000,1.024041,0.834661,189.682020,745.501863
0.070000,1.024028,0.834684,189.714584,745.505037
0.080000,1.024018,0.834680,189.759817,745.482117
0.090000,1.024008,0.834647,189.815640,745.428830
0.100000,1.023997,0.834581,189.880420,745.341655
0.110000,1.029660,0.797630,176.714753,717.723540
0.120000,1.029765,0.797309,176.896224,717.451384
0.130000,1.029822,0.796943,177.039259,717.108008
0.140000,1.029843,0.796539,177.152450,716.709934
0.150000,1.029840,0.796102,177.242180,716.268938
0.160000,1.029821,0.795638,177.313180,715.793448
0.170000,1.029791,0.795148,177.369020,715.289487
0.180000,1.029753,0.794635,177.412269,714.761508
0.190000,1.029711,0.794102,177.444709,714.212954
0.200000,1.029666,0.793549,177.467668,713.646507
0.210000,1.029621,0.792978,177.482120,713.064361
0.220000,1.029575,0.792391,177.488779,712.468398
0.230000,1.029530,0.791789,177.488169,711.860321
0.240000,1.029485,0.791173,177.480690,711.241731
0.250000,1.029443,0.790545,177.466652,710.614187
0.260000,1.029401,0.789907,177.446311,709.979243
0.270000,1.029361,0.789260,177.419891,709.338472
0.280000,1.029323,0.788605,177.387600,708.693477
0.290000,1.029287,0.787945,177.349642,708.045902
0.300000,1.029252,0.787281,177.306225,707.397430
0.310000,1.029220,0.786615,177.257568,706.749784
0.320000,1.029189,0.785949,177.203905,706.104722
0.330000,1.029159,0.785285,177.145478,705.464032
0.340000,1.029132,0.784625,177.082530,704.829513
0.350000,1.029106,0.783971,177.015333,704.202992
0.360000,1.029081,0.783326,176.944200,703.586321
0.370000,1.029058,0.782690,176.869464,702.981352
0.380000,1.029036,0.782067,176.791461,702.389927
0.390000,1.029016,0.781458,176.710543,701.813872
0.400000,1.028997,0.780865,176.627072,701.254996
0.410000,1.028979,0.780290,176.541421,700.715077
0.420000,1.028962,0.779736,176.453972,700.195858
0.430000,1.028947,0.779204,176.365112,699.699041
0.440000,1.028933,0.778696,176.275237,699.226279
0.450000,1.028919,0.778214,176.184745,698.779166
0.460000,1.028907,0.777760,176.094033,698.359238
0.470000,1.028896,0.777335,176.003502,697.967958
0.480000,1.028885,0.776941,175.913549,697.606718
0.490000,1.028876,0.776579,175.824567,697.276829
0.500000,1.028867,0.776251,175.736945,696.979518
0.510000,1.028859,0.775959,175.651064,696.715922
0.520000,1.028852,0.775702,175.567298,696.487085
0.530000,1.028845,0.775484,175.486009,696.293952
0.540000,1.028839,0.775303,175.407548,696.137368
0.550000,1.028834,0.775163,175.332254,696.018074
0.560000,1.028829,0.775062,175.260450,695.936703
0.570000,1.028825,0.775002,175.192447,695.893782
0.580000,1.028821,0.774984,175.128535,695.889724
0.590000,1.028819,0.775007,175.068989,695.924832
0.600000,1.028816,0.775072,175.014064,695.999295
0.610000,1.028814,0.775180,174.963998,696.113190
0.620000,1.028813,0.775330,174.919004,696.266481
0.630000,1.028812,0.775522,174.879279,696.459019
0.640000,1.028811,0.775755,174.844994,696.690544
0.650000,1.028812,0.776031,174.816300,696.960684
0.660000,1.028812,0.776347,174.793324,697.268962
0.670000,1.028813,0.776704,174.776172,697.614791
0.680000,1.028815,0.777101,174.764923,697.997484
0.690000,1.028817,0.777536,174.759637,698.416251
0.700000,1.028820,0.778010,174.760346,698.870205
0.710000,1.028824,0.778521,174.767061,699.358367
0.720000,1.028827,0.779067,174.779768,699.879668
0.730000,1.028832,0.779649,174.798433,700.432951
0.740000,1.028837,0.780263,174.822994,701.016982
0.750000,1.028843,0.780910,174.853371,701.630450
0.760000,1.028849,0.781586,174.889459,702.271971
0.770000,1.028856,0.782292,174.931132,702.940098
0.780000,1.028864,0.783025,174.978246,703.633324
0.790000,1.028873,0.783783,175.030633,704.350086
0.800000,1.028882,0.784565,175.088107,705.088772
0.810000,1.028892,0.785369,175.150466,705.847728
0.820000,1.028903,0.786194,175.217487,706.625263
0.830000,1.028914,0.787036,175.288933,707.419655
0.840000,1.028927,0.787895,175.364552,708.229156
0.850000,1.028940,0.788767,175.444076,709.051998
0.860000,1.028954,0.789653,175.527227,709.886403
0.870000,1.028970,0.790548,175.613713,710.730581
0.880000,1.028986,0.791453,175.703232,711.582745
0.890000,1.029003,0.792363,175.795475,712.441110
0.900000,1.029021,0.793278,175.890124,713.303899
0.910000,1.029040,0.794196,175.986844,714.169346
0.920000,1.029060,0.795114,176.085274,715.035693
0.930000,1.029082,0.796031,176.185075,715.901224
0.940000,1.029104,0.796944,176.285934,716.764271
0.950000,1.029127,0.797853,176.387528,717.623189
0.960000,1.029152,0.798755,176.489526,718.476371
0.970000,1.029177,0.799648,176.591600,719.322252
0.980000,1.029204,0.800531,176.693427,720.159313
0.990000,1.029232,0.801402,176.794686,720.986089
1.000000,1.029261,0.802260,176.895063,721.801167
1.010000,1.029291,0.803103,176.994253,722.603194
1.020000,1.029322,0.803930,177.091957,723.390876
1.030000,1.029354,0.804738,177.187890,724.162982
1.040000,1.029388,0.805528,177.281787,724.918336
1.050000,1.029423,0.806298,177.373398,725.655826
1.060000,1.029458,0.807046,177.462479,726.374411
1.070000,1.029495,0.807772,177.548791,727.073129
1.080000,1.029533,0.808475,177.632096,727.751101
1.090000,1.029572,0.809153,177.712176,728.407521
1.100000,1.029611,0.809806,177.788835,729.041652
1.110000,1.029652,0.810433,177.861892,729.652831
1.120000,1.029694,0.811034,177.931186,730.240466
1.130000,1.029736,0.811608,177.996572,730.804038
1.140000,1.029780,0.812155,178.057923,731.343098
1.150000,1.029824,0.812674,178.115128,731.857271
1.160000,1.029869,0.813164,178.168097,732.346248
1.170000,1.029915,0.813627,178.216755,732.809791
1.180000,1.029961,0.814060,178.261028,733.247717
1.190000,1.030007,0.814466,178.300794,733.659870
1.200000,1.030055,0.814842,178.335994,734.046192
1.210000,1.030102,0.815191,178.366674,734.406738
1.220000,1.030150,0.815511,178.392884,734.741608
1.230000,1.030198,0.815802,178.414666,735.050937
1.240000,1.030246,0.816066,178.432071,735.334911
1.250000,1.030294,0.816303,178.445164,735.593766
1.260000,1.030342,0.816512,178.454023,735.827786
1.270000,1.030390,0.816695,178.458739,736.037296
1.280000,1.030438,0.816851,178.459416,736.222664
1.290000,1.030486,0.816982,178.456169,736.384295
1.300000,1.030534,0.817087,178.449124,736.522628
1.310000,1.030581,0.817168,178.438418,736.638135
1.320000,1.030628,0.817225,178.424197,736.731312
1.330000,1.030674,0.817259,178.406616,736.802683
1.340000,1.030719,0.817270,178.385838,736.852791
1.350000,1.030764,0.817259,178.362034,736.882199
1.360000,1.030808,0.817228,178.335380,736.891481
1.370000,1.030851,0.817175,178.306058,736.881226
1.380000,1.030893,0.817103,178.274254,736.852029
1.390000,1.030934,0.817012,178.240158,736.804491
1.400000,1.030974,0.816903,178.203963,736.739213
1.410000,1.031012,0.816777,178.165861,736.656798
1.420000,1.031050,0.816633,178.126050,736.557845
1.430000,1.031086,0.816474,178.084722,736.442945
1.440000,1.031120,0.816299,178.042074,736.312682
1.450000,1.031153,0.816110,177.998297,736.167628
1.460000,1.031185,0.815907,177.953582,736.008344
1.470000,1.031215,0.815690,177.908114,735.835374
1.480000,1.031244,0.815461,177.862078,735.649246
1.490000,1.031270,0.815220,177.815652,735.450469
1.500000,1.031295,0.814968,177.769008,735.239533
1.510000,1.031318,0.814704,177.722314,735.016907
1.520000,1.031340,0.814431,177.675730,734.783037
1.530000,1.031359,0.814147,177.629409,734.538347
1.540000,1.031377,0.813855,177.583498,734.283238
1.550000,1.031393,0.813553,177.538133,734.018086
1.560000,1.031407,0.813243,177.493444,733.743244
1.570000,1.031419,0.812925,177.449552,733.459040
1.580000,1.031429,0.812599,177.406568,733.165781
1.590000,1.031437,0.812266,177.364592,732.863746
1.600000,1.031443,0.811926,177.323719,732.553196
1.610000,1.031447,0.811579,177.284028,732.234367
1.620000,1.031449,0.811225,177.245594,731.907473
1.630000,1.031449,0.810865,177.208477,731.572712
1.640000,1.031447,0.810499,177.172731,731.230260
1.650000,1.031443,0.810127,177.138396,730.880275
1.660000,1.031438,0.809749,177.105505,730.522902
1.670000,1.031430,0.809365,177.074079,730.158269
1.680000,1.031421,0.808975,177.044132,729.786493
1.690000,1.031410,0.808580,177.015665,729.407680
1.700000,1.031397,0.808180,176.988673,729.021927
1.710000,1.031382,0.807774,176.963139,728.629322
1.720000,1.031365,0.807363,176.939040,728.229952
1.730000,1.031347,0.806946,176.916342,727.823899
1.740000,1.031327,0.806524,176.895006,727.411243
1.750000,1.031306,0.806097,176.874984,726.992067
1.760000,1.031283,0.805665,176.856220,726.566457
1.770000,1.031258,0.805227,176.838653,726.134503
1.780000,1.031232,0.804785,176.822217,725.696304
1.790000,1.031205,0.804337,176.806838,725.251968
1.800000,1.031176,0.803884,176.792439,724.801614
1.810000,1.031146,0.803426,176.778938,724.345372
1.820000,1.031115,0.802964,176.766250,723.883389
1.830000,1.031083,0.802497,176.754286,723.415829
1.840000,1.031049,0.802025,176.742956,722.942870
1.850000,1.031015,0.801548,176.732166,722.464715
1.860000,1.030979,0.801067,176.721824,721.981582
1.870000,1.030943,0.800582,176.711833,721.493714
1.880000,1.030906,0.800093,176.702101,721.001376
1.890000,1.030868,0.799600,176.692510,720.504843
1.900000,1.030829,0.799104,176.682911,720.004396
1.910000,1.030790,0.798604,176.673182,719.500361
1.920000,1.030750,0.798102,176.663260,718.993124
1.930000,1.030709,0.797597,176.653093,718.483095
1.940000,1.030668,0.797090,176.642610,717.970693
1.950000,1.030626,0.796581,176.631739,717.456362
1.960000,1.030584,0.796070,176.620410,716.940569
1.970000,1.030542,0.795559,176.608560,716.423807
1.980000,1.030499,0.795047,176.596127,715.906592
1.990000,1.030457,0.794535,176.583055,715.389467
2.000000,1.030414,0.794024,176.569296,714.872994
2.010000,1.030371,0.793514,176.554805,714.357760
2.020000,1.030328,0.793006,176.539544,713.844372
2.030000,1.030285,0.792500,176.523481,713.333457
2.040000,1.030242,0.791997,176.506606,712.825649
2.050000,1.030200,0.791497,176.488939,712.321577
2.060000,1.030157,0.791002,176.470480,711.821897
2.070000,1.030115,0.790511,176.451206,711.327309
2.080000,1.030073,0.790027,176.431096,710.838534
2.090000,1.030031,0.789548,176.410152,710.356296
2.100000,1.029990,0.789077,176.388386,709.881325
2.110000,1.029949,0.788614,176.365817,709.414355
2.120000,1.029909,0.788159,176.342474,708.956126
2.130000,1.029869,0.787713,176.318390,708.507377
2.140000,1.029830,0.787277,176.293607,708.068849
2.150000,1.029791,0.786853,176.268173,707.641277
2.160000,1.029753,0.786440,176.242142,707.225394
2.170000,1.029715,0.786039,176.215573,706.821926
2.180000,1.029679,0.785651,176.188531,706.431587
2.190000,1.029643,0.785277,176.161088,706.055082
2.200000,1.029607,0.784918,176.133317,705.693102
2.210000,1.029573,0.784574,176.105298,705.346321
2.220000,1.029539,0.784246,176.077115,705.015397
2.230000,1.029506,0.783934,176.048855,704.700967
2.240000,1.029474,0.783640,176.020605,704.403643
2.250000,1.029443,0.783363,175.992449,704.124010
2.260000,1.029413,0.783105,175.964473,703.862629
2.270000,1.029384,0.782866,175.936771,703.620036
2.280000,1.029356,0.782646,175.909448,703.396743
2.290000,1.029328,0.782447,175.882611,703.193230
2.300000,1.029302,0.782268,175.856364,703.009941
2.310000,1.029277,0.782110,175.830808,702.847284
2.320000,1.029253,0.781974,175.806045,702.705631
2.330000,1.029229,0.781859,175.782174,702.585319
2.340000,1.029207,0.781767,175.759293,702.486645
2.350000,1.029186,0.781697,175.737499,702.409865
2.360000,1.029166,0.781649,175.716885,702.355199
2.370000,1.029147,0.781625,175.697543,702.322823
2.380000,1.029129,0.781623,175.679561,702.312872
2.390000,1.029113,0.781644,175.663024,702.325438
2.400000,1.029097,0.781689,175.648013,702.360574
2.410000,1.029083,0.781757,175.634604,702.418286
2.420000,1.029070,0.781848,175.622870,702.498540
2.430000,1.029058,0.781962,175.612880,702.601258
2.440000,1.029047,0.782099,175.604695,702.726319
2.450000,1.029037,0.782259,175.598373,702.873560
2.460000,1.029029,0.782442,175.593966,703.042776
2.470000,1.029021,0.782647,175.591520,703.233721
2.480000,1.029015,0.782874,175.591076,703.446106
2.490000,1.029010,0.783123,175.592669,703.679604
2.500000,1.029006,0.783393,175.596325,703.933848
2.510000,1.029003,0.783684,175.602068,704.208432
2.520000,1.029002,0.783996,175.609912,704.502914
2.530000,1.029001,0.784328,175.619866,704.816813
2.540000,1.029002,0.784679,175.631934,705.149617
2.550000,1.029004,0.785050,175.646109,705.500777
2.560000,1.029007,0.785438,175.662383,705.869715
2.570000,1.029011,0.785844,175.680737,706.255820
2.580000,1.029016,0.786267,175.701149,706.658454
2.590000,1.029023,0.786707,175.723588,707.076950
2.600000,1.029030,0.787162,175.748018,707.510616
2.610000,1.029039,0.787632,175.774397,707.958737
2.620000,1.029048,0.788116,175.802677,708.420575
2.630000,1.029059,0.788613,175.832805,708.895372
2.640000,1.029071,0.789123,175.864720,709.382352
2.650000,1.029084,0.789644,175.898358,709.880723
2.660000,1.029098,0.790176,175.933649,710.389678
2.670000,1.029113,0.790717,175.970517,710.908396
2.680000,1.029128,0.791268,176.008877,711.436045
2.690000,1.029145,0.791827,176.048634,711.971780
2.700000,1.029163,0.792393,176.089694,712.514753
2.710000,1.029182,0.792965,176.131965,713.064116
2.720000,1.029201,0.793543,176.175361,713.619022
2.730000,1.029222,0.794125,176.219788,714.178619
2.740000,1.029243,0.794711,176.265149,714.742055
2.750000,1.029266,0.795300,176.311341,715.308481
2.760000,1.029289,0.795890,176.358262,715.877052
2.770000,1.029312,0.796481,176.405806,716.446928
2.780000,1.029337,0.797072,176.453866,717.017278
2.790000,1.029362,0.797662,176.502335,717.587281
2.800000,1.029389,0.798251,176.551104,718.156126
2.810000,1.029415,0.798837,176.600066,718.723014
2.820000,1.029443,0.799420,176.649113,719.287159
2.830000,1.029471,0.799998,176.698137,719.847794
2.840000,1.029500,0.800571,176.747032,720.404166
2.850000,1.029529,0.801139,176.795690,720.955540
2.860000,1.029559,0.801700,176.844013,721.501197
2.870000,1.029590,0.802254,176.891912,722.040428
2.880000,1.029621,0.802799,176.939303,722.572542
2.890000,1.029652,0.803337,176.986094,723.096872
2.900000,1.029684,0.803864,177.032187,723.612788
2.910000,1.029716,0.804382,177.077476,724.119688
2.920000,1.029749,0.804889,177.121864,724.616996
2.930000,1.029782,0.805385,177.165264,725.104157
2.940000,1.029815,0.805869,177.207592,725.580639
2.950000,1.029849,0.806341,177.248769,726.045935
2.960000,1.029883,0.806800,177.288719,726.499565
2.970000,1.029917,0.807246,177.327373,726.941072
2.980000,1.029951,0.807679,177.364665,727.370027
2.990000,1.029985,0.808097,177.400533,727.786024
3.000000,1.030020,0.808501,177.434921,728.188684
3.010000,1.030054,0.808890,177.467779,728.577655
3.020000,1.030089,0.809263,177.499058,728.952609
3.030000,1.030123,0.809622,177.528717,729.313243
3.040000,1.030158,0.809964,177.556719,729.659281
3.050000,1.030192,0.810291,177.583031,729.990470
3.060000,1.030226,0.810602,177.607605,730.306570
3.070000,1.030260,0.810896,177.630379,730.607353
3.080000,1.030294,0.811174,177.651318,730.892634
3.090000,1.030328,0.811435,177.670420,731.162266
3.100000,1.030361,0.811679,177.687705,731.416133
3.110000,1.030394,0.811907,177.703184,731.654127
3.120000,1.030426,0.812117,177.716864,731.876159
3.130000,1.030458,0.812311,177.728755,732.082157
3.140000,1.030490,0.812488,177.738873,732.272071
3.150000,1.030521,0.812647,177.747232,732.445867
3.160000,1.030551,0.812790,177.753855,732.603533
3.170000,1.030582,0.812916,177.758764,732.745070
3.180000,1.030611,0.813025,177.761987,732.870499
3.190000,1.030640,0.813117,177.763554,732.979856
3.200000,1.030668,0.813192,177.763498,733.073193
3.210000,1.030696,0.813251,177.761856,733.150575
3.220000,1.030723,0.813294,177.758666,733.212084
3.230000,1.030749,0.813320,177.753970,733.257811
3.240000,1.030774,0.813330,177.747811,733.287864
3.250000,1.030798,0.813324,177.740236,733.302361
3.260000,1.030822,0.813302,177.731292,733.301431
3.270000,1.030845,0.813264,177.721031,733.285213
3.280000,1.030867,0.813211,177.709499,733.253861
3.290000,1.030888,0.813143,177.696753,733.207532
3.300000,1.030908,0.813060,177.682844,733.146397
3.310000,1.030927,0.812961,177.667827,733.070632
3.320000,1.030945,0.812848,177.651757,732.980423
3.330000,1.030962,0.812721,177.634690,732.875965
3.340000,1.030978,0.812580,177.616681,732.757457
3.350000,1.030993,0.812425,177.597785,732.625108
3.360000,1.031007,0.812256,177.578059,732.479133
3.370000,1.031020,0.812074,177.557557,732.319753
3.380000,1.031031,0.811879,177.536335,732.147194
3.390000,1.031042,0.811670,177.514445,731.961689
3.400000,1.031051,0.811450,177.491942,731.763479
3.410000,1.031059,0.811217,177.468878,731.552808
3.420000,1.031066,0.810972,177.445303,731.329926
3.430000,1.031072,0.810715,177.421268,731.095089
3.440000,1.031077,0.810447,177.396820,730.848559
3.450000,1.031080,0.810168,177.372007,730.590602
3.460000,1.031083,0.809878,177.346873,730.321491
3.470000,1.031084,0.809577,177.321463,730.041504
3.480000,1.031084,0.809267,177.295818,729.750926
3.490000,1.031082,0.808946,177.269977,729.450044
3.500000,1.031080,0.808616,177.243980,729.139156
3.510000,1.031076,0.808276,177.217861,728.818562
3.520000,1.031071,0.807928,177.191656,728.488570
3.530000,1.031065,0.807571,177.165395,728.149493
3.540000,1.031058,0.807206,177.139110,727.801651
3.550000,1.031049,0.806833,177.112827,727.445371
3.560000,1.031040,0.806452,177.086574,727.080987
3.570000,1.031029,0.806064,177.060373,726.708838
3.580000,1.031017,0.805669,177.034247,726.329271
3.590000,1.031004,0.805268,177.008217,725.942640
3.600000,1.030990,0.804860,176.982299,725.549307
3.610000,1.030975,0.804447,176.956511,725.149639
3.620000,1.030959,0.804029,176.930868,724.744012
3.630000,1.030942,0.803605,176.905382,724.332810
3.640000,1.030923,0.803177,176.880064,723.916422
3.650000,1.030904,0.802745,176.854925,723.495247
3.660000,1.030884,0.802308,176.829972,723.069689
3.670000,1.030863,0.801869,176.805214,722.640160
3.680000,1.030841,0.801426,176.780655,722.207081
3.690000,1.030818,0.800981,176.756286,721.770869
3.700000,1.030794,0.800534,176.732082,721.331942
3.710000,1.030769,0.800085,176.708019,720.890728
3.720000,1.030743,0.799635,176.684095,720.447675
3.730000,1.030717,0.799184,176.660331,720.003252
3.740000,1.030690,0.798733,176.636746,719.557927
3.750000,1.030662,0.798282,176.613346,719.112168
3.760000,1.030633,0.797831,176.590136,718.666446
3.770000,1.030604,0.797382,176.567118,718.221236
3.780000,1.030575,0.796934,176.544296,717.777019
3.790000,1.030544,0.796488,176.521671,717.334276
3.800000,1.030513,0.796044,176.499246,716.893496
3.810000,1.030482,0.795604,176.477023,716.455167
3.820000,1.030450,0.795167,176.455003,716.019780
3.830000,1.030418,0.794734,176.433189,715.587829
3.840000,1.030386,0.794305,176.411584,715.159808
3.850000,1.030353,0.793881,176.390192,714.736210
3.860000,1.030320,0.793463,176.369015,714.317530
3.870000,1.030287,0.793050,176.348059,713.904260
3.880000,1.030253,0.792644,176.327328,713.496891
3.890000,1.030220,0.792245,176.306833,713.095908
3.900000,1.030186,0.791853,176.286594,712.701783
3.910000,1.030152,0.791469,176.266634,712.314982
3.920000,1.030119,0.791093,176.246968,711.935968
3.930000,1.030085,0.790725,176.227602,711.565208
3.940000,1.030051,0.790367,176.208533,711.203175
3.950000,1.030018,0.790019,176.189764,710.850331
3.960000,1.029985,0.789680,176.171306,710.507127
3.970000,1.029951,0.789352,176.153168,710.174004
3.980000,1.029918,0.789035,176.135366,709.851394
3.990000,1.029886,0.788729,176.117913,709.539714
4.000000,1.029854,0.788435,176.100826,709.239374
4.010000,1.029822,0.788152,176.084121,708.950767
4.020000,1.029790,0.787883,176.067816,708.674273
4.030000,1.029759,0.787626,176.051931,708.410261
4.040000,1.029729,0.787382,176.036486,708.159080
4.050000,1.029699,0.787152,176.021503,707.921067
