b:tnow in s,s:ut in p.u.,s:cur1 in p.u.,s:Q1 in Mvar,s:P1 in MW
0,1.0123,0.87978,165.763649,508
0.01,1.011928,0.882069,166.204958,509.111336
0.02,1.011915,0.882034,166.172441,509.092107
0.03,1.011902,0.882,166.145706,509.071982
0.04,1.011892,0.881968,166.125395,509.052893
0.05,1.011883,0.881941,166.107924,509.036213
0.06,1.011877,0.881917,166.09252,509.022208
0.07,1.011871,0.881897,166.078671,509.010895
0.08,1.011868,0.88188,166.066035,509.002154
0.09,1.011865,0.881866,166.054371,508.99578
0.1,1.011864,0.881855,166.043503,508.991528
0.11,1.011863,0.881847,166.033296,508.989129
0.12,1.011864,0.88184,166.023647,508.98831
0.13,1.011865,0.881835,166.014472,508.988795
0.14,1.011867,0.881831,166.005706,508.990315
0.15,1.011869,0.881829,165.997295,508.992611
0.16,1.011872,0.881826,165.989197,508.995429
0.17,1.011876,0.881824,165.981376,508.99853
0.18,1.011879,0.881822,165.973805,509.001685
0.19,1.011884,0.881819,165.966462,509.00468
0.2,1.011888,0.881815,165.959331,509.00731
0.21,1.011894,0.881811,165.952397,509.009386
0.22,1.011899,0.881804,165.945652,509.010732
0.23,1.011905,0.881797,165.939089,509.011187
0.24,1.011911,0.881787,165.932705,509.010603
0.25,1.011918,0.881776,165.926498,509.008847
0.26,1.011924,0.881762,165.920467,509.005801
0.27,1.011932,0.881746,165.914614,509.001361
0.28,1.011939,0.881727,165.90894,508.99544
0.29,1.011947,0.881706,165.903449,508.987964
0.3,1.011955,0.881682,165.898144,508.978874
0.31,1.011963,0.881655,165.893029,508.968126
0.32,1.011972,0.881626,165.888108,508.955692
0.33,1.011981,0.881593,165.883384,508.941556
0.34,1.01199,0.881558,165.878861,508.925718
0.35,1.011999,0.88152,165.874543,508.90819
0.36,1.012009,0.88148,165.870433,508.888998
0.37,1.012019,0.881437,165.866534,508.868181
0.38,1.012029,0.881391,165.862847,508.845788
0.39,1.012039,0.881343,165.859376,508.821882
0.4,1.012049,0.881293,165.856121,508.796536
0.41,1.012059,0.88124,165.853083,508.76983
0.42,1.01207,0.881186,165.850261,508.741858
0.43,1.01208,0.88113,165.847657,508.712717
0.44,1.012091,0.881072,165.845269,508.682517
0.45,1.012102,0.881013,165.843096,508.65137
0.46,1.012112,0.880952,165.841135,508.619396
0.47,1.012123,0.880891,165.839386,508.586719
0.48,1.012134,0.880829,165.837844,508.553466
0.49,1.012144,0.880766,165.836507,508.519769
0.5,1.012155,0.880703,165.835372,508.485761
0.51,1.012165,0.88064,165.834435,508.451575
0.52,1.012176,0.880577,165.833692,508.417347
0.53,1.012186,0.880515,165.83314,508.383209
0.54,1.012196,0.880453,165.832773,508.349293
0.55,1.012206,0.880392,165.832587,508.315731
0.56,1.012215,0.880331,165.832579,508.282648
0.57,1.012225,0.880273,165.832743,508.250169
0.58,1.012234,0.880215,165.833075,508.218413
0.59,1.012243,0.880159,165.833571,508.187494
0.6,1.012251,0.880105,165.834226,508.157521
0.61,1.01226,0.880053,165.835036,508.128597
0.62,1.012268,0.880003,165.835998,508.100819
0.63,1.012275,0.879955,165.837107,508.074277
0.64,1.012283,0.87991,165.838359,508.049053
0.65,1.01229,0.879868,165.839751,508.025224
0.66,1.012296,0.879828,165.84128,508.002857
0.67,1.012303,0.87979,165.842942,507.982013
0.68,1.012308,0.879756,165.844734,507.962745
0.69,1.012314,0.879725,165.846655,507.945097
0.7,1.012319,0.879696,165.848701,507.929107
0.71,1.012324,0.879671,165.85087,507.914804
0.72,1.012328,0.879649,165.85316,507.902212
0.73,1.012332,0.87963,165.85557,507.891344
0.74,1.012335,0.879614,165.858098,507.882208
0.75,1.012338,0.879601,165.860742,507.874805
0.76,1.012341,0.879591,165.863502,507.869129
0.77,1.012343,0.879584,165.866375,507.865168
0.78,1.012345,0.879581,165.869361,507.862905
0.79,1.012346,0.87958,165.87246,507.862315
0.8,1.012347,0.879583,165.87567,507.863371
0.81,1.012347,0.879588,165.87899,507.866038
0.82,1.012347,0.879597,165.88242,507.870279
0.83,1.012347,0.879608,165.885959,507.876052
0.84,1.012346,0.879622,165.889606,507.883313
0.85,1.012345,0.879638,165.893361,507.892013
0.86,1.012343,0.879658,165.897222,507.902102
0.87,1.012341,0.879679,165.901188,507.913526
0.88,1.012339,0.879703,165.905258,507.926231
0.89,1.012336,0.879729,165.909431,507.940161
0.9,1.012333,0.879758,165.913705,507.955258
0.91,1.01233,0.879789,165.918078,507.971465
0.92,1.012326,0.879821,165.92255,507.988724
0.93,1.012322,0.879856,165.927116,508.006976
0.94,1.012317,0.879892,165.931776,508.026164
0.95,1.012313,0.87993,165.936526,508.046231
0.96,1.012307,0.87997,165.941363,508.067119
0.97,1.012302,0.880011,165.946285,508.088773
0.98,1.012296,0.880053,165.951287,508.111139
0.99,1.01229,0.880097,165.956366,508.134164
1,1.012284,0.880142,165.961518,508.157795
1.01,1.012277,0.880189,165.966738,508.181983
1.02,1.012271,0.880236,165.972023,508.206679
1.03,1.012263,0.880284,165.977366,508.231835
1.04,1.012256,0.880333,165.982763,508.257407
1.05,1.012249,0.880383,165.988208,508.28335
1.06,1.012241,0.880434,165.993696,508.309623
1.07,1.012233,0.880485,165.99922,508.336184
1.08,1.012225,0.880537,166.004775,508.362994
1.09,1.012217,0.880589,166.010354,508.390016
1.1,1.012208,0.880642,166.015951,508.417212
1.11,1.0122,0.880695,166.021559,508.444547
1.12,1.012191,0.880748,166.027171,508.471987
1.13,1.012182,0.880802,166.03278,508.499497
1.14,1.012173,0.880856,166.038379,508.527045
1.15,1.012164,0.88091,166.043962,508.554598
1.16,1.012155,0.880963,166.049521,508.582125
1.17,1.012146,0.881017,166.055049,508.609593
1.18,1.012137,0.881071,166.060538,508.636971
1.19,1.012128,0.881124,166.065983,508.664228
1.2,1.012119,0.881177,166.071376,508.691332
1.21,1.012109,0.88123,166.07671,508.718251
1.22,1.0121,0.881283,166.081978,508.744953
1.23,1.012091,0.881335,166.087175,508.771405
1.24,1.012082,0.881386,166.092292,508.797574
1.25,1.012073,0.881437,166.097326,508.823427
1.26,1.012064,0.881488,166.102268,508.848928
1.27,1.012055,0.881537,166.107115,508.874044
1.28,1.012046,0.881586,166.111859,508.898739
1.29,1.012037,0.881634,166.116497,508.922975
1.3,1.012029,0.881681,166.121023,508.946717
1.31,1.01202,0.881727,166.125433,508.969927
1.32,1.012012,0.881772,166.129723,508.992566
1.33,1.012004,0.881815,166.133888,509.014597
1.34,1.011996,0.881858,166.137926,509.03598
1.35,1.011988,0.881899,166.141833,509.056677
1.36,1.011981,0.881938,166.145607,509.076648
1.37,1.011974,0.881977,166.149244,509.095855
1.38,1.011967,0.882013,166.152744,509.114258
1.39,1.01196,0.882048,166.156104,509.131818
1.4,1.011954,0.882082,166.159324,509.148499
1.41,1.011947,0.882113,166.162401,509.164262
1.42,1.011942,0.882143,166.165337,509.179071
1.43,1.011936,0.882171,166.16813,509.192892
1.44,1.011931,0.882197,166.170781,509.20569
1.45,1.011926,0.882221,166.17329,509.217433
1.46,1.011921,0.882243,166.175658,509.228091
1.47,1.011917,0.882263,166.177886,509.237635
1.48,1.011913,0.88228,166.179976,509.24604
1.49,1.011909,0.882296,166.181929,509.25328
1.5,1.011906,0.882309,166.183747,509.259334
1.51,1.011904,0.88232,166.185433,509.264185
1.52,1.011901,0.882329,166.186988,509.267816
1.53,1.011899,0.882335,166.188416,509.270215
1.54,1.011897,0.882339,166.18972,509.271372
1.55,1.011896,0.88234,166.190902,509.271281
1.56,1.011895,0.882339,166.191965,509.26994
1.57,1.011895,0.882336,166.192914,509.26735
1.58,1.011895,0.882331,166.193751,509.263515
1.59,1.011895,0.882323,166.194479,509.258443
1.6,1.011896,0.882313,166.195103,509.252148
1.61,1.011897,0.8823,166.195627,509.244644
1.62,1.011898,0.882286,166.196053,509.235951
1.63,1.0119,0.882269,166.196386,509.226093
1.64,1.011902,0.88225,166.19663,509.215096
1.65,1.011905,0.882229,166.196788,509.202992
1.66,1.011908,0.882206,166.196865,509.189814
1.67,1.011911,0.88218,166.196864,509.1756
1.68,1.011915,0.882153,166.196788,509.160391
1.69,1.011919,0.882125,166.196643,509.144231
1.7,1.011923,0.882094,166.196431,509.127166
1.71,1.011928,0.882062,166.196156,509.109248
1.72,1.011933,0.882028,166.195822,509.090528
1.73,1.011938,0.881992,166.195433,509.071062
1.74,1.011944,0.881956,166.194991,509.050906
1.75,1.01195,0.881918,166.194502,509.030119
1.76,1.011956,0.881879,166.193967,509.008763
1.77,1.011962,0.881839,166.193391,508.986899
1.78,1.011969,0.881798,166.192776,508.964591
1.79,1.011976,0.881756,166.192126,508.941903
1.8,1.011983,0.881713,166.191444,508.9189
1.81,1.01199,0.88167,166.190733,508.895649
1.82,1.011998,0.881626,166.189997,508.872213
1.83,1.012005,0.881582,166.189238,508.848659
1.84,1.012013,0.881538,166.188459,508.825051
1.85,1.012021,0.881494,166.187663,508.801454
1.86,1.01203,0.88145,166.186853,508.777931
1.87,1.012038,0.881405,166.186031,508.754544
1.88,1.012046,0.881361,166.185202,508.731355
1.89,1.012055,0.881318,166.184366,508.708421
1.9,1.012063,0.881274,166.183527,508.685801
1.91,1.012072,0.881231,166.182688,508.663549
1.92,1.012081,0.881189,166.181852,508.641719
1.93,1.012089,0.881148,166.18102,508.620361
1.94,1.012098,0.881107,166.180196,508.599522
1.95,1.012107,0.881067,166.179382,508.579249
1.96,1.012116,0.881029,166.178581,508.559582
1.97,1.012124,0.880991,166.177796,508.540563
1.98,1.012133,0.880954,166.177028,508.522226
1.99,1.012142,0.880919,166.176282,508.504606
2,1.01215,0.880884,166.175558,508.487732
2.01,1.012159,0.880851,166.17486,508.471631
2.02,1.012168,0.88082,166.174191,508.456327
2.03,1.012176,0.880789,166.173552,508.441839
2.04,1.012184,0.88076,166.172947,508.428187
2.05,1.012192,0.880733,166.172377,508.415382
2.06,1.012201,0.880707,166.171847,508.403438
2.07,1.012209,0.880682,166.171357,508.39236
2.08,1.012216,0.880659,166.17091,508.382155
2.09,1.012224,0.880638,166.170509,508.372824
2.1,1.012232,0.880618,166.170156,508.364367
2.11,1.012239,0.880599,166.169854,508.35678
2.12,1.012246,0.880582,166.169604,508.350058
2.13,1.012253,0.880567,166.169409,508.344192
2.14,1.01226,0.880553,166.169272,508.339172
2.15,1.012267,0.880541,166.169193,508.334985
2.16,1.012273,0.88053,166.169175,508.331617
2.17,1.01228,0.88052,166.169221,508.329052
2.18,1.012286,0.880512,166.169331,508.327272
2.19,1.012291,0.880506,166.169507,508.326258
2.2,1.012297,0.880501,166.169751,508.325989
2.21,1.012303,0.880497,166.170065,508.326444
2.22,1.012308,0.880494,166.17045,508.3276
2.23,1.012313,0.880493,166.170906,508.329434
2.24,1.012317,0.880493,166.171436,508.331922
2.25,1.012322,0.880494,166.172039,508.335039
2.26,1.012326,0.880497,166.172717,508.338761
2.27,1.01233,0.8805,166.173471,508.343064
2.28,1.012334,0.880505,166.1743,508.347922
2.29,1.012338,0.880511,166.175205,508.35331
2.3,1.012341,0.880518,166.176186,508.359204
2.31,1.012344,0.880526,166.177243,508.36558
2.32,1.012347,0.880534,166.178376,508.372413
2.33,1.012349,0.880544,166.179584,508.37968
2.34,1.012352,0.880555,166.180867,508.387359
2.35,1.012354,0.880566,166.182224,508.395428
2.36,1.012356,0.880579,166.183653,508.403864
2.37,1.012357,0.880592,166.185155,508.412646
2.38,1.012358,0.880606,166.186727,508.421756
2.39,1.01236,0.88062,166.188368,508.431174
2.4,1.01236,0.880636,166.190076,508.440881
2.41,1.012361,0.880652,166.191849,508.45086
2.42,1.012361,0.880668,166.193686,508.461094
2.43,1.012361,0.880686,166.195585,508.471568
2.44,1.012361,0.880704,166.197542,508.482265
2.45,1.012361,0.880722,166.199555,508.493172
2.46,1.01236,0.880741,166.201623,508.504275
2.47,1.012359,0.88076,166.203741,508.515562
2.48,1.012358,0.88078,166.205908,508.527019
2.49,1.012357,0.880801,166.208119,508.538635
2.5,1.012356,0.880822,166.210373,508.550399
2.51,1.012354,0.880843,166.212665,508.5623
2.52,1.012352,0.880865,166.214992,508.574327
2.53,1.01235,0.880887,166.217352,508.586472
2.54,1.012347,0.880909,166.219739,508.598724
2.55,1.012345,0.880932,166.222152,508.611075
2.56,1.012342,0.880955,166.224585,508.623513
2.57,1.012339,0.880978,166.227035,508.636032
2.58,1.012336,0.881002,166.229499,508.64862
2.59,1.012333,0.881026,166.231973,508.661271
2.6,1.012329,0.88105,166.234452,508.673973
2.61,1.012326,0.881075,166.236933,508.686719
2.62,1.012322,0.881099,166.239412,508.699498
2.63,1.012318,0.881124,166.241885,508.712301
2.64,1.012314,0.881149,166.244348,508.725118
2.65,1.01231,0.881174,166.246797,508.737939
2.66,1.012305,0.881199,166.249228,508.750754
2.67,1.012301,0.881224,166.251638,508.763552
2.68,1.012296,0.881249,166.254022,508.776321
2.69,1.012291,0.881274,166.256378,508.78905
2.7,1.012287,0.8813,166.2587,508.801728
2.71,1.012282,0.881325,166.260986,508.814341
2.72,1.012277,0.88135,166.263231,508.826879
2.73,1.012272,0.881375,166.265433,508.839327
2.74,1.012267,0.8814,166.267588,508.851673
2.75,1.012262,0.881424,166.269691,508.863903
2.76,1.012257,0.881449,166.271741,508.876004
2.77,1.012251,0.881473,166.273734,508.887961
2.78,1.012246,0.881497,166.275667,508.899761
2.79,1.012241,0.881521,166.277536,508.911389
2.8,1.012236,0.881544,166.279339,508.92283
2.81,1.01223,0.881567,166.281072,508.934072
2.82,1.012225,0.88159,166.282734,508.945098
2.83,1.01222,0.881612,166.284322,508.955895
2.84,1.012215,0.881634,166.285833,508.966448
2.85,1.01221,0.881655,166.287264,508.976744
2.86,1.012205,0.881676,166.288614,508.986769
2.87,1.0122,0.881696,166.289881,508.996509
2.88,1.012195,0.881716,166.291062,509.005951
2.89,1.01219,0.881735,166.292155,509.015082
2.9,1.012185,0.881753,166.293159,509.023891
2.91,1.01218,0.881771,166.294073,509.032364
2.92,1.012176,0.881788,166.294894,509.040492
2.93,1.012171,0.881805,166.295622,509.048263
2.94,1.012167,0.88182,166.296254,509.055668
2.95,1.012163,0.881835,166.296791,509.062698
2.96,1.012159,0.88185,166.297231,509.069343
2.97,1.012155,0.881863,166.297574,509.075597
2.98,1.012151,0.881876,166.297818,509.081453
2.99,1.012147,0.881887,166.297964,509.086904
3,1.012144,0.881898,166.29801,509.091945
3.01,1.012141,0.881908,166.297957,509.096573
3.02,1.012137,0.881918,166.297804,509.100785
3.03,1.012134,0.881926,166.297552,509.104576
3.04,1.012132,0.881934,166.297201,509.107948
3.05,1.012129,0.88194,166.296751,509.110897
3.06,1.012127,0.881946,166.296202,509.113426
3.07,1.012124,0.881951,166.295556,509.115536
3.08,1.012122,0.881955,166.294813,509.117227
3.09,1.01212,0.881958,166.293973,509.118505
3.1,1.012119,0.881961,166.293038,509.119371
3.11,1.012117,0.881962,166.292009,509.119832
3.12,1.012116,0.881963,166.290888,509.119892
3.13,1.012115,0.881962,166.289675,509.119558
3.14,1.012114,0.881961,166.288372,509.118836
3.15,1.012113,0.88196,166.286982,509.117734
3.16,1.012113,0.881957,166.285506,509.116261
3.17,1.012113,0.881953,166.283945,509.114425
3.18,1.012113,0.881949,166.282302,509.112236
3.19,1.012113,0.881944,166.28058,509.109702
3.2,1.012113,0.881939,166.27878,509.106835
3.21,1.012114,0.881932,166.276905,509.103646
3.22,1.012114,0.881925,166.274958,509.100144
3.23,1.012115,0.881917,166.272941,509.096342
3.24,1.012117,0.881909,166.270858,509.09225
3.25,1.012118,0.8819,166.26871,509.087882
3.26,1.012119,0.88189,166.266502,509.083248
3.27,1.012121,0.88188,166.264236,509.07836
3.28,1.012123,0.881869,166.261915,509.073231
3.29,1.012125,0.881858,166.259543,509.067872
3.3,1.012127,0.881846,166.257123,509.062296
3.31,1.012129,0.881833,166.254659,509.056515
3.32,1.012132,0.881821,166.252154,509.05054
3.33,1.012135,0.881807,166.249612,509.044384
3.34,1.012137,0.881794,166.247035,509.038059
3.35,1.01214,0.88178,166.244429,509.031574
3.36,1.012143,0.881765,166.241797,509.024944
3.37,1.012147,0.88175,166.239141,509.018177
3.38,1.01215,0.881735,166.236467,509.011286
3.39,1.012153,0.88172,166.233778,509.004281
3.4,1.012157,0.881705,166.231078,508.997173
3.41,1.01216,0.881689,166.22837,508.989973
3.42,1.012164,0.881673,166.225659,508.982689
3.43,1.012168,0.881656,166.222948,508.975333
3.44,1.012172,0.88164,166.22024,508.967915
3.45,1.012176,0.881624,166.21754,508.960443
3.46,1.01218,0.881607,166.214852,508.952927
3.47,1.012184,0.88159,166.212178,508.945376
3.48,1.012188,0.881573,166.209522,508.9378
3.49,1.012192,0.881556,166.206888,508.930207
3.5,1.012196,0.88154,166.204279,508.922607
3.51,1.012201,0.881523,166.201699,508.915008
3.52,1.012205,0.881506,166.19915,508.907418
3.53,1.012209,0.881489,166.196637,508.899847
3.54,1.012214,0.881472,166.194161,508.892303
3.55,1.012218,0.881455,166.191725,508.884795
3.56,1.012222,0.881439,166.189333,508.877331
3.57,1.012226,0.881422,166.186988,508.86992
3.58,1.012231,0.881406,166.18469,508.86257
3.59,1.012235,0.88139,166.182444,508.855291
3.6,1.012239,0.881373,166.180251,508.848092
3.61,1.012243,0.881358,166.178114,508.840981
3.62,1.012247,0.881342,166.176033,508.833968
3.63,1.012251,0.881327,166.174011,508.827062
3.64,1.012255,0.881312,166.17205,508.820272
3.65,1.012259,0.881297,166.170151,508.813608
3.66,1.012263,0.881282,166.168316,508.807079
3.67,1.012267,0.881268,166.166544,508.800697
3.68,1.012271,0.881254,166.164838,508.79447
3.69,1.012274,0.881241,166.163198,508.788408
3.7,1.012278,0.881228,166.161625,508.782523
3.71,1.012281,0.881215,166.160119,508.776824
3.72,1.012284,0.881203,166.158681,508.771323
3.73,1.012288,0.881191,166.15731,508.766029
3.74,1.012291,0.88118,166.156007,508.760954
3.75,1.012294,0.881169,166.154772,508.756108
3.76,1.012296,0.881159,166.153603,508.751502
3.77,1.012299,0.881149,166.152501,508.747147
3.78,1.012302,0.88114,166.151465,508.743053
3.79,1.012304,0.881131,166.150495,508.739232
3.8,1.012306,0.881123,166.149588,508.735693
3.81,1.012309,0.881116,166.148745,508.732448
3.82,1.012311,0.881109,166.147964,508.729505
3.83,1.012312,0.881103,166.147244,508.726876
3.84,1.012314,0.881098,166.146583,508.72457
3.85,1.012316,0.881093,166.14598,508.722596
3.86,1.012317,0.881089,166.145434,508.720964
3.87,1.012318,0.881085,166.144942,508.719681
3.88,1.012319,0.881083,166.144504,508.718755
3.89,1.01232,0.881081,166.144116,508.718196
3.9,1.012321,0.88108,166.143777,508.718008
3.91,1.012322,0.881079,166.143486,508.718199
3.92,1.012322,0.88108,166.14324,508.718775
3.93,1.012323,0.881081,166.143037,508.719741
3.94,1.012323,0.881083,166.142875,508.721101
3.95,1.012323,0.881085,166.142751,508.722858
3.96,1.012323,0.881089,166.142665,508.725015
3.97,1.012322,0.881093,166.142613,508.727575
3.98,1.012322,0.881098,166.142593,508.730539
3.99,1.012321,0.881104,166.142603,508.733906
4,1.012321,0.881111,166.142641,508.737676
4.01,1.01232,0.881118,166.142705,508.741847
4.02,1.012319,0.881126,166.142792,508.746417
4.03,1.012317,0.881135,166.142901,508.751382
4.04,1.012316,0.881144,166.143028,508.756738
4.05,1.012315,0.881155,166.143173,508.762478
4.06,1.012313,0.881166,166.143333,508.768597
4.07,1.012311,0.881178,166.143505,508.775087
4.08,1.012309,0.88119,166.143689,508.781939
4.09,1.012307,0.881203,166.143881,508.789144
4.1,1.012305,0.881217,166.144081,508.796691
4.11,1.012303,0.881231,166.144286,508.804569
4.12,1.012301,0.881246,166.144494,508.812766
4.13,1.012298,0.881262,166.144704,508.821268
4.14,1.012296,0.881278,166.144914,508.830062
4.15,1.012293,0.881295,166.145122,508.839132
4.16,1.01229,0.881312,166.145327,508.848463
4.17,1.012287,0.881329,166.145527,508.858038
4.18,1.012284,0.881347,166.145721,508.86784
4.19,1.012281,0.881366,166.145907,508.877852
4.2,1.012278,0.881384,166.146085,508.888054
4.21,1.012275,0.881403,166.146252,508.898428
4.22,1.012272,0.881423,166.146408,508.908955
4.23,1.012269,0.881442,166.146551,508.919614
4.24,1.012265,0.881462,166.146681,508.930385
4.25,1.012262,0.881482,166.146796,508.941247
4.26,1.012258,0.881502,166.146896,508.952179
4.27,1.012255,0.881523,166.146979,508.963161
4.28,1.012252,0.881543,166.147044,508.97417
4.29,1.012248,0.881563,166.147092,508.985186
4.3,1.012244,0.881584,166.14712,508.996187
4.31,1.012241,0.881604,166.147128,509.007152
4.32,1.012237,0.881624,166.147116,509.018058
4.33,1.012234,0.881644,166.147083,509.028887
4.34,1.01223,0.881664,166.147028,509.039615
4.35,1.012227,0.881684,166.146951,509.050224
4.36,1.012223,0.881703,166.146851,509.060692
4.37,1.012219,0.881722,166.146728,509.071
4.38,1.012216,0.881741,166.14658,509.081129
