b:tnow in s,s:ut in p.u.,s:cur1 in p.u.,s:Q1 in Mvar,s:P1 in MW
0,1.0635,0.764412,101.17501,560
0.01,1.06305,0.766716,101.907039,561.364978
0.02,1.063049,0.766721,101.910097,561.368163
0.03,1.063047,0.766721,101.908503,561.367329
0.04,1.063042,0.766714,101.901249,561.360792
0.05,1.063038,0.766702,101.891468,561.351016
0.06,1.063035,0.766685,101.879918,561.338635
0.07,1.063032,0.766665,101.867137,561.324142
0.08,1.063031,0.766641,101.85351,561.307918
0.09,1.06303,0.766615,101.839307,561.29025
0.1,1.06303,0.766586,101.824723,561.271355
0.11,1.063031,0.766556,101.809892,561.251399
0.12,1.063033,0.766523,101.794915,561.23051
0.13,1.063035,0.766489,101.77986,561.208787
0.14,1.063038,0.766454,101.764778,561.18631
0.15,1.063041,0.766417,101.749703,561.163146
0.16,1.063045,0.766379,101.734659,561.139351
0.17,1.06305,0.76634,101.719662,561.114976
0.18,1.063055,0.7663,101.704723,561.09007
0.19,1.06306,0.766259,101.68985,561.064676
0.2,1.063066,0.766217,101.675046,561.03884
0.21,1.063072,0.766174,101.660317,561.012606
0.22,1.063079,0.766131,101.645665,560.986019
0.23,1.063086,0.766087,101.631094,560.959126
0.24,1.063093,0.766042,101.616606,560.931973
0.25,1.0631,0.765997,101.602207,560.904608
0.26,1.063108,0.765952,101.587903,560.87708
0.27,1.063116,0.765906,101.573698,560.849439
0.28,1.063125,0.76586,101.559601,560.821735
0.29,1.063133,0.765814,101.545619,560.794018
0.3,1.063142,0.765767,101.531763,560.766338
0.31,1.063151,0.765721,101.518041,560.738745
0.32,1.063161,0.765675,101.504466,560.711288
0.33,1.06317,0.765629,101.491049,560.684017
0.34,1.06318,0.765583,101.477802,560.656978
0.35,1.06319,0.765537,101.464738,560.630217
0.36,1.0632,0.765492,101.45187,560.603779
0.37,1.06321,0.765447,101.439211,560.577706
0.38,1.06322,0.765403,101.426776,560.55204
0.39,1.06323,0.765359,101.414578,560.526818
0.4,1.063241,0.765316,101.40263,560.502077
0.41,1.063251,0.765274,101.390946,560.477852
0.42,1.063262,0.765232,101.37954,560.454173
0.43,1.063272,0.765192,101.368425,560.43107
0.44,1.063283,0.765152,101.357613,560.408569
0.45,1.063293,0.765113,101.347117,560.386694
0.46,1.063303,0.765075,101.336949,560.365466
0.47,1.063314,0.765038,101.327121,560.344905
0.48,1.063324,0.765002,101.317642,560.325025
0.49,1.063334,0.764967,101.308525,560.305842
0.5,1.063344,0.764933,101.299777,560.287367
0.51,1.063354,0.764901,101.291409,560.269608
0.52,1.063364,0.764869,101.283429,560.252574
0.53,1.063373,0.764839,101.275844,560.236268
0.54,1.063383,0.76481,101.268663,560.220694
0.55,1.063392,0.764782,101.26189,560.205855
0.56,1.063401,0.764756,101.255533,560.191748
0.57,1.06341,0.76473,101.249596,560.178374
0.58,1.063418,0.764706,101.244084,560.165728
0.59,1.063426,0.764683,101.239,560.153808
0.6,1.063434,0.764662,101.234348,560.142608
0.61,1.063442,0.764641,101.230131,560.132123
0.62,1.063449,0.764622,101.22635,560.122346
0.63,1.063456,0.764605,101.223008,560.113271
0.64,1.063462,0.764588,101.220104,560.104891
0.65,1.063469,0.764573,101.21764,560.097198
0.66,1.063475,0.764559,101.215615,560.090187
0.67,1.06348,0.764546,101.214028,560.083851
0.68,1.063485,0.764535,101.21288,560.078182
0.69,1.06349,0.764524,101.212167,560.073175
0.7,1.063495,0.764515,101.21189,560.068824
0.71,1.063499,0.764507,101.212044,560.065125
0.72,1.063502,0.764501,101.212628,560.062073
0.73,1.063506,0.764496,101.213638,560.059665
0.74,1.063509,0.764492,101.215073,560.057899
0.75,1.063511,0.764489,101.216926,560.056772
0.76,1.063513,0.764487,101.219196,560.056284
0.77,1.063515,0.764487,101.221878,560.056435
0.78,1.063516,0.764488,101.224968,560.057225
0.79,1.063517,0.76449,101.22846,560.058658
0.8,1.063518,0.764493,101.23235,560.060734
0.81,1.063518,0.764498,101.236633,560.063458
0.82,1.063517,0.764503,101.241303,560.066834
0.83,1.063517,0.76451,101.246355,560.070867
0.84,1.063516,0.764519,101.251783,560.075561
0.85,1.063514,0.764528,101.25758,560.080923
0.86,1.063512,0.764539,101.263741,560.086958
0.87,1.06351,0.764551,101.270259,560.093672
0.88,1.063508,0.764564,101.277126,560.101073
0.89,1.063505,0.764579,101.284337,560.109166
0.9,1.063501,0.764595,101.291882,560.117957
0.91,1.063498,0.764612,101.299756,560.127452
0.92,1.063494,0.76463,101.307948,560.137657
0.93,1.063489,0.76465,101.316452,560.148574
0.94,1.063485,0.76467,101.325258,560.160209
0.95,1.06348,0.764692,101.334358,560.172564
0.96,1.063474,0.764716,101.343741,560.185641
0.97,1.063469,0.76474,101.353399,560.199439
0.98,1.063463,0.764766,101.363321,560.213958
0.99,1.063457,0.764793,101.373496,560.229194
1,1.06345,0.764821,101.383913,560.245144
1.01,1.063444,0.764851,101.394562,560.261801
1.02,1.063437,0.764881,101.405429,560.279156
1.03,1.063429,0.764913,101.416503,560.2972
1.04,1.063422,0.764946,101.427772,560.315919
1.05,1.063414,0.76498,101.43922,560.3353
1.06,1.063406,0.765015,101.450836,560.355324
1.07,1.063398,0.76505,101.462605,560.375973
1.08,1.06339,0.765087,101.474512,560.397224
1.09,1.063382,0.765125,101.486542,560.419052
1.1,1.063373,0.765164,101.498679,560.441431
1.11,1.063365,0.765203,101.510909,560.464331
1.12,1.063356,0.765243,101.523214,560.487721
1.13,1.063347,0.765284,101.535577,560.511565
1.14,1.063338,0.765326,101.547982,560.535827
1.15,1.063329,0.765368,101.56041,560.560468
1.16,1.063319,0.765411,101.572845,560.585445
1.17,1.06331,0.765454,101.585268,560.610715
1.18,1.063301,0.765497,101.59766,560.636233
1.19,1.063291,0.765541,101.610004,560.66195
1.2,1.063282,0.765585,101.622279,560.687817
1.21,1.063273,0.765629,101.634468,560.713782
1.22,1.063263,0.765673,101.646551,560.739792
1.23,1.063254,0.765717,101.658508,560.765793
1.24,1.063244,0.765761,101.670321,560.791729
1.25,1.063235,0.765804,101.681971,560.817545
1.26,1.063226,0.765847,101.693438,560.843182
1.27,1.063217,0.76589,101.704704,560.868582
1.28,1.063208,0.765933,101.71575,560.893687
1.29,1.063199,0.765974,101.726557,560.91844
1.3,1.06319,0.766015,101.737107,560.94278
1.31,1.063181,0.766056,101.747383,560.96665
1.32,1.063173,0.766095,101.757366,560.989993
1.33,1.063165,0.766134,101.767041,561.012751
1.34,1.063156,0.766171,101.77639,561.034869
1.35,1.063148,0.766207,101.785398,561.056291
1.36,1.063141,0.766242,101.794049,561.076965
1.37,1.063133,0.766276,101.80233,561.096837
1.38,1.063126,0.766308,101.810225,561.11586
1.39,1.063119,0.766339,101.817723,561.133984
1.4,1.063112,0.766368,101.824811,561.151164
1.41,1.063105,0.766396,101.831478,561.167357
1.42,1.063099,0.766422,101.837713,561.182521
1.43,1.063093,0.766446,101.843508,561.196621
1.44,1.063088,0.766469,101.848853,561.209619
1.45,1.063082,0.76649,101.853741,561.221485
1.46,1.063077,0.766509,101.858167,561.232191
1.47,1.063073,0.766525,101.862124,561.241709
1.48,1.063068,0.76654,101.865609,561.25002
1.49,1.063064,0.766553,101.868618,561.257104
1.5,1.06306,0.766564,101.87115,561.262947
1.51,1.063057,0.766573,101.873203,561.267538
1.52,1.063054,0.76658,101.87478,561.270869
1.53,1.063052,0.766585,101.875879,561.272936
1.54,1.06305,0.766588,101.876506,561.273741
1.55,1.063048,0.766589,101.876662,561.273286
1.56,1.063046,0.766587,101.876354,561.271579
1.57,1.063045,0.766584,101.875587,561.268631
1.58,1.063045,0.766579,101.874368,561.264457
1.59,1.063044,0.766571,101.872705,561.259076
1.6,1.063045,0.766562,101.870608,561.25251
1.61,1.063045,0.766551,101.868087,561.244783
1.62,1.063046,0.766538,101.865153,561.235925
1.63,1.063047,0.766523,101.861818,561.225966
1.64,1.063049,0.766506,101.858094,561.214942
1.65,1.063051,0.766488,101.853997,561.202891
1.66,1.063053,0.766468,101.84954,561.189853
1.67,1.063056,0.766446,101.844738,561.175871
1.68,1.063059,0.766423,101.839609,561.16099
1.69,1.063063,0.766398,101.834167,561.145258
1.7,1.063067,0.766372,101.828431,561.128724
1.71,1.063071,0.766345,101.822419,561.111441
1.72,1.063075,0.766316,101.816148,561.093461
1.73,1.06308,0.766287,101.809637,561.074838
1.74,1.063086,0.766256,101.802905,561.05563
1.75,1.063091,0.766224,101.795972,561.035893
1.76,1.063097,0.766192,101.788857,561.015684
1.77,1.063103,0.766158,101.781578,560.995062
1.78,1.063109,0.766124,101.774158,560.974085
1.79,1.063116,0.766089,101.766613,560.952814
1.8,1.063123,0.766054,101.758966,560.931307
1.81,1.06313,0.766019,101.751235,560.909622
1.82,1.063137,0.765983,101.743439,560.88782
1.83,1.063145,0.765946,101.735599,560.865956
1.84,1.063152,0.76591,101.727733,560.844089
1.85,1.06316,0.765874,101.71986,560.822275
1.86,1.063168,0.765837,101.711998,560.80057
1.87,1.063176,0.765801,101.704165,560.779026
1.88,1.063185,0.765765,101.69638,560.757697
1.89,1.063193,0.765729,101.688658,560.736635
1.9,1.063202,0.765694,101.681017,560.715887
1.91,1.06321,0.765659,101.673473,560.695502
1.92,1.063219,0.765624,101.666041,560.675525
1.93,1.063228,0.76559,101.658737,560.656
1.94,1.063237,0.765557,101.651573,560.636969
1.95,1.063246,0.765524,101.644564,560.618469
1.96,1.063255,0.765493,101.637722,560.60054
1.97,1.063264,0.765462,101.631061,560.583214
1.98,1.063273,0.765432,101.62459,560.566525
1.99,1.063282,0.765403,101.61832,560.550502
2,1.06329,0.765374,101.612263,560.535172
2.01,1.063299,0.765347,101.606426,560.520559
2.02,1.063308,0.765321,101.600818,560.506688
2.03,1.063317,0.765296,101.595446,560.493576
2.04,1.063325,0.765273,101.590319,560.481241
2.05,1.063334,0.76525,101.585441,560.469698
2.06,1.063342,0.765229,101.580818,560.458959
2.07,1.063351,0.765209,101.576455,560.449034
2.08,1.063359,0.76519,101.572356,560.43993
2.09,1.063367,0.765172,101.568523,560.431653
2.1,1.063375,0.765156,101.56496,560.424206
2.11,1.063382,0.765141,101.561669,560.417588
2.12,1.06339,0.765127,101.55865,560.411799
2.13,1.063397,0.765114,101.555905,560.406834
2.14,1.063405,0.765103,101.553433,560.402689
2.15,1.063411,0.765093,101.551234,560.399355
2.16,1.063418,0.765084,101.549306,560.396824
2.17,1.063425,0.765077,101.547649,560.395084
2.18,1.063431,0.765071,101.546259,560.394123
2.19,1.063437,0.765066,101.545135,560.393926
2.2,1.063443,0.765062,101.544274,560.394479
2.21,1.063449,0.76506,101.543671,560.395763
2.22,1.063454,0.765058,101.543324,560.397762
2.23,1.063459,0.765058,101.543227,560.400455
2.24,1.063464,0.765059,101.543377,560.403823
2.25,1.063469,0.765061,101.543768,560.407844
2.26,1.063473,0.765064,101.544396,560.412496
2.27,1.063477,0.765069,101.545255,560.417757
2.28,1.063481,0.765074,101.54634,560.423603
2.29,1.063485,0.76508,101.547645,560.430011
2.3,1.063488,0.765087,101.549163,560.436956
2.31,1.063491,0.765095,101.55089,560.444414
2.32,1.063494,0.765104,101.552818,560.45236
2.33,1.063496,0.765114,101.554942,560.460769
2.34,1.063499,0.765125,101.557255,560.469616
2.35,1.063501,0.765136,101.55975,560.478876
2.36,1.063502,0.765148,101.562421,560.488524
2.37,1.063504,0.765161,101.565261,560.498536
2.38,1.063505,0.765175,101.568265,560.508886
2.39,1.063506,0.765189,101.571425,560.519551
2.4,1.063506,0.765204,101.574734,560.530507
2.41,1.063507,0.765219,101.578187,560.541729
2.42,1.063507,0.765235,101.581776,560.553196
2.43,1.063507,0.765252,101.585495,560.564884
2.44,1.063506,0.765269,101.589338,560.576771
2.45,1.063506,0.765286,101.593299,560.588836
2.46,1.063505,0.765304,101.59737,560.601057
2.47,1.063504,0.765322,101.601546,560.613415
2.48,1.063502,0.76534,101.60582,560.625888
2.49,1.063501,0.765359,101.610186,560.63846
2.5,1.063499,0.765378,101.614637,560.65111
2.51,1.063497,0.765398,101.619169,560.663821
2.52,1.063494,0.765417,101.623775,560.676577
2.53,1.063492,0.765437,101.628448,560.68936
2.54,1.063489,0.765457,101.633183,560.702155
2.55,1.063486,0.765477,101.637974,560.714947
2.56,1.063483,0.765498,101.642815,560.727722
2.57,1.06348,0.765518,101.647701,560.740466
2.58,1.063476,0.765538,101.652625,560.753165
2.59,1.063473,0.765559,101.657582,560.765809
2.6,1.063469,0.765579,101.662566,560.778384
2.61,1.063465,0.7656,101.667572,560.79088
2.62,1.063461,0.765621,101.672593,560.803286
2.63,1.063457,0.765641,101.677624,560.815592
2.64,1.063452,0.765662,101.68266,560.827789
2.65,1.063448,0.765682,101.687695,560.839869
2.66,1.063443,0.765702,101.692724,560.851822
2.67,1.063438,0.765723,101.69774,560.863641
2.68,1.063433,0.765743,101.702738,560.875318
2.69,1.063428,0.765763,101.707712,560.886847
2.7,1.063423,0.765783,101.712658,560.898221
2.71,1.063418,0.765802,101.717568,560.909433
2.72,1.063413,0.765822,101.722439,560.920479
2.73,1.063408,0.765841,101.727263,560.931352
2.74,1.063403,0.76586,101.732036,560.942047
2.75,1.063397,0.765879,101.736751,560.95256
2.76,1.063392,0.765898,101.741404,560.962885
2.77,1.063386,0.765916,101.745988,560.973019
2.78,1.063381,0.765934,101.750498,560.982957
2.79,1.063376,0.765952,101.754929,560.992695
2.8,1.06337,0.76597,101.759274,561.002229
2.81,1.063365,0.765987,101.763529,561.011555
2.82,1.063359,0.766004,101.767686,561.02067
2.83,1.063354,0.76602,101.771743,561.029571
2.84,1.063349,0.766037,101.775691,561.038254
2.85,1.063344,0.766053,101.779527,561.046715
2.86,1.063338,0.766068,101.783245,561.054952
2.87,1.063333,0.766083,101.78684,561.062961
2.88,1.063328,0.766098,101.790306,561.070739
2.89,1.063323,0.766112,101.793638,561.078282
2.9,1.063318,0.766126,101.796832,561.085589
2.91,1.063313,0.76614,101.799882,561.092655
2.92,1.063309,0.766153,101.802784,561.099477
2.93,1.063304,0.766166,101.805532,561.106052
2.94,1.0633,0.766178,101.808123,561.112378
2.95,1.063295,0.766189,101.810552,561.118451
2.96,1.063291,0.766201,101.812815,561.124267
2.97,1.063287,0.766211,101.814908,561.129825
2.98,1.063283,0.766222,101.816827,561.13512
2.99,1.06328,0.766231,101.818568,561.140149
3,1.063276,0.766241,101.820129,561.14491
3.01,1.063273,0.766249,101.821505,561.149398
3.02,1.063269,0.766258,101.822694,561.153613
3.03,1.063266,0.766265,101.823693,561.157549
3.04,1.063264,0.766272,101.8245,561.161204
3.05,1.063261,0.766279,101.825112,561.164576
3.06,1.063258,0.766285,101.825527,561.167662
3.07,1.063256,0.76629,101.825745,561.170458
3.08,1.063254,0.766295,101.825763,561.172962
3.09,1.063252,0.766299,101.82558,561.175172
3.1,1.063251,0.766303,101.825196,561.177086
3.11,1.063249,0.766306,101.82461,561.1787
3.12,1.063248,0.766308,101.823823,561.180014
3.13,1.063247,0.76631,101.822833,561.181025
3.14,1.063246,0.766311,101.821643,561.181732
3.15,1.063245,0.766312,101.820252,561.182133
3.16,1.063245,0.766312,101.818662,561.182228
3.17,1.063245,0.766312,101.816874,561.182016
3.18,1.063245,0.76631,101.81489,561.181496
3.19,1.063245,0.766309,101.812713,561.180668
3.2,1.063245,0.766306,101.810344,561.179532
3.21,1.063246,0.766303,101.807788,561.178089
3.22,1.063247,0.7663,101.805046,561.17634
3.23,1.063248,0.766296,101.802123,561.174287
3.24,1.063249,0.766291,101.799022,561.17193
3.25,1.063251,0.766285,101.795748,561.169273
3.26,1.063252,0.766279,101.792304,561.166317
3.27,1.063254,0.766273,101.788697,561.163067
3.28,1.063256,0.766266,101.78493,561.159526
3.29,1.063258,0.766258,101.78101,561.155698
3.3,1.063261,0.76625,101.776941,561.151587
3.31,1.063263,0.766242,101.772731,561.1472
3.32,1.063266,0.766232,101.768385,561.142542
3.33,1.063269,0.766223,101.763909,561.137619
3.34,1.063272,0.766213,101.759311,561.132439
3.35,1.063275,0.766202,101.754597,561.127008
3.36,1.063278,0.766191,101.749775,561.121335
3.37,1.063282,0.766179,101.744852,561.115428
3.38,1.063285,0.766168,101.739836,561.109298
3.39,1.063289,0.766155,101.734733,561.102952
3.4,1.063293,0.766143,101.729553,561.096403
3.41,1.063297,0.76613,101.724304,561.08966
3.42,1.063301,0.766116,101.718993,561.082735
3.43,1.063305,0.766103,101.713628,561.075641
3.44,1.063309,0.766089,101.708219,561.068389
3.45,1.063314,0.766075,101.702774,561.060993
3.46,1.063318,0.76606,101.697301,561.053467
3.47,1.063322,0.766046,101.691809,561.045823
3.48,1.063327,0.766031,101.686307,561.038077
3.49,1.063331,0.766016,101.680802,561.030244
3.5,1.063336,0.766001,101.675304,561.022339
3.51,1.063341,0.765986,101.669822,561.014377
3.52,1.063345,0.76597,101.664364,561.006375
3.53,1.06335,0.765955,101.658938,560.998348
3.54,1.063354,0.76594,101.653552,560.990313
3.55,1.063359,0.765925,101.648216,560.982288
3.56,1.063364,0.765909,101.642937,560.974289
3.57,1.063368,0.765894,101.637724,560.966332
3.58,1.063373,0.765879,101.632583,560.958437
3.59,1.063377,0.765865,101.627524,560.950619
3.6,1.063382,0.76585,101.622553,560.942896
3.61,1.063386,0.765836,101.617677,560.935285
3.62,1.063391,0.765821,101.612905,560.927805
3.63,1.063395,0.765807,101.608243,560.920472
3.64,1.063399,0.765794,101.603697,560.913303
3.65,1.063404,0.76578,101.599273,560.906314
3.66,1.063408,0.765768,101.594979,560.899524
3.67,1.063412,0.765755,101.59082,560.892948
3.68,1.063416,0.765743,101.586801,560.886601
3.69,1.063419,0.765731,101.582928,560.880501
3.7,1.063423,0.76572,101.579205,560.874662
3.71,1.063427,0.765709,101.575637,560.869098
3.72,1.06343,0.765699,101.572229,560.863825
3.73,1.063434,0.765689,101.568984,560.858856
3.74,1.063437,0.76568,101.565906,560.854203
3.75,1.06344,0.765671,101.562998,560.849881
3.76,1.063443,0.765663,101.560264,560.8459
3.77,1.063446,0.765656,101.557704,560.842271
3.78,1.063448,0.765649,101.555322,560.839006
3.79,1.063451,0.765643,101.55312,560.836113
3.8,1.063453,0.765637,101.551098,560.833603
3.81,1.063456,0.765632,101.549258,560.831482
3.82,1.063458,0.765628,101.547601,560.829758
3.83,1.06346,0.765624,101.546126,560.828438
3.84,1.063461,0.765622,101.544834,560.827526
3.85,1.063463,0.76562,101.543725,560.827028
3.86,1.063464,0.765618,101.542796,560.826947
3.87,1.063466,0.765618,101.542048,560.827286
3.88,1.063467,0.765618,101.541479,560.828047
3.89,1.063468,0.765618,101.541087,560.82923
3.9,1.063469,0.76562,101.54087,560.830836
3.91,1.063469,0.765622,101.540825,560.832863
3.92,1.06347,0.765625,101.540949,560.83531
3.93,1.06347,0.765629,101.54124,560.838173
3.94,1.06347,0.765633,101.541693,560.841449
3.95,1.06347,0.765638,101.542306,560.845133
3.96,1.06347,0.765644,101.543074,560.849219
3.97,1.06347,0.76565,101.543994,560.8537
3.98,1.063469,0.765657,101.54506,560.85857
3.99,1.063469,0.765665,101.546267,560.86382
4,1.063468,0.765673,101.547612,560.869441
4.01,1.063467,0.765682,101.549088,560.875423
4.02,1.063466,0.765691,101.550691,560.881755
4.03,1.063465,0.765702,101.552414,560.888427
4.04,1.063463,0.765712,101.554253,560.895426
4.05,1.063462,0.765723,101.556201,560.902738
4.06,1.06346,0.765735,101.558252,560.910352
4.07,1.063459,0.765747,101.5604,560.918253
4.08,1.063457,0.76576,101.562639,560.926427
4.09,1.063455,0.765773,101.564963,560.934858
4.1,1.063453,0.765787,101.567365,560.943531
4.11,1.06345,0.765801,101.569838,560.95243
4.12,1.063448,0.765815,101.572377,560.961539
4.13,1.063446,0.76583,101.574974,560.970842
4.14,1.063443,0.765845,101.577623,560.980321
4.15,1.06344,0.76586,101.580317,560.98996
4.16,1.063438,0.765875,101.583051,560.99974
4.17,1.063435,0.765891,101.585816,561.009645
4.18,1.063432,0.765907,101.588607,561.019657
4.19,1.063429,0.765923,101.591418,561.029759
4.2,1.063426,0.76594,101.594241,561.039932
4.21,1.063423,0.765956,101.59707,561.050159
4.22,1.06342,0.765973,101.5999,561.060422
4.23,1.063417,0.765989,101.602723,561.070704
4.24,1.063413,0.766006,101.605534,561.080988
4.25,1.06341,0.766023,101.608326,561.091256
4.26,1.063407,0.766039,101.611095,561.101491
4.27,1.063403,0.766056,101.613833,561.111677
4.28,1.0634,0.766072,101.616536,561.121797
4.29,1.063396,0.766089,101.619198,561.131835
4.3,1.063393,0.766105,101.621813,561.141776
4.31,1.063389,0.766121,101.624377,561.151604
4.32,1.063386,0.766137,101.626884,561.161303
4.33,1.063382,0.766153,101.62933,561.170861
4.34,1.063379,0.766168,101.63171,561.180262
4.35,1.063375,0.766184,101.634019,561.189493
4.36,1.063372,0.766199,101.636253,561.198541
4.37,1.063368,0.766213,101.638408,561.207394
4.38,1.063365,0.766228,101.64048,561.21604
