b:tnow in s,s:ut in p.u.,s:cur1 in p.u.,s:Q1 in Mvar,s:P1 in MW
0,1.0265,0.808879,22.841625,830
0.01,1.025677,0.812558,23.215481,833.097848
0.02,1.025649,0.812508,23.15821,833.025798
0.03,1.025626,0.812451,23.107556,832.950946
0.04,1.025611,0.812386,23.065818,832.873359
0.05,1.025601,0.812317,23.029257,832.795222
0.06,1.025596,0.812244,22.996897,832.716707
0.07,1.025594,0.812168,22.968143,832.638052
0.08,1.025596,0.812089,22.942446,832.559194
0.09,1.025601,0.812007,22.919388,832.480037
0.1,1.025609,0.811923,22.898636,832.400472
0.11,1.02562,0.811836,22.879918,832.320393
0.12,1.025632,0.811747,22.863012,832.239717
0.13,1.025647,0.811655,22.847731,832.158388
0.14,1.025663,0.811562,22.833921,832.076378
0.15,1.025682,0.811467,22.821447,831.99369
0.16,1.025701,0.81137,22.810197,831.910355
0.17,1.025722,0.811271,22.800071,831.82643
0.18,1.025744,0.811171,22.790985,831.741992
0.19,1.025768,0.81107,22.782862,831.65714
0.2,1.025792,0.810967,22.775636,831.57199
0.21,1.025817,0.810864,22.769248,831.486671
0.22,1.025843,0.81076,22.763643,831.401327
0.23,1.02587,0.810656,22.758774,831.316108
0.24,1.025898,0.810551,22.754596,831.231175
0.25,1.025926,0.810447,22.75107,831.146693
0.26,1.025954,0.810343,22.748157,831.062833
0.27,1.025983,0.810239,22.745824,830.979766
0.28,1.026012,0.810136,22.744038,830.897666
0.29,1.026041,0.810034,22.742768,830.816708
0.3,1.026071,0.809933,22.741985,830.737065
0.31,1.0261,0.809833,22.741662,830.658908
0.32,1.02613,0.809735,22.741772,830.582404
0.33,1.02616,0.809639,22.74229,830.507716
0.34,1.026189,0.809545,22.743191,830.435005
0.35,1.026218,0.809453,22.744451,830.364424
0.36,1.026247,0.809364,22.746047,830.296119
0.37,1.026276,0.809277,22.747957,830.230232
0.38,1.026304,0.809193,22.750157,830.166895
0.39,1.026332,0.809112,22.752626,830.106234
0.4,1.02636,0.809034,22.755343,830.048365
0.41,1.026386,0.80896,22.758288,829.993397
0.42,1.026413,0.808889,22.761439,829.941428
0.43,1.026438,0.808821,22.764776,829.892548
0.44,1.026463,0.808757,22.76828,829.846836
0.45,1.026487,0.808697,22.771932,829.804363
0.46,1.02651,0.808641,22.775713,829.765186
0.47,1.026532,0.808588,22.779605,829.729357
0.48,1.026554,0.80854,22.783589,829.696912
0.49,1.026574,0.808496,22.78765,829.667881
0.5,1.026593,0.808456,22.79177,829.64228
0.51,1.026612,0.80842,22.795934,829.620118
0.52,1.026629,0.808388,22.800125,829.601389
0.53,1.026646,0.80836,22.80433,829.586081
0.54,1.026661,0.808337,22.808534,829.574169
0.55,1.026675,0.808317,22.812724,829.565619
0.56,1.026688,0.808302,22.816888,829.560388
0.57,1.0267,0.808291,22.821013,829.558421
0.58,1.026711,0.808283,22.82509,829.559655
0.59,1.026721,0.80828,22.829106,829.564019
0.6,1.02673,0.80828,22.833055,829.571433
0.61,1.026737,0.808285,22.836926,829.581807
0.62,1.026744,0.808293,22.840712,829.595045
0.63,1.026749,0.808304,22.844407,829.611043
0.64,1.026753,0.808319,22.848005,829.629691
0.65,1.026756,0.808337,22.851501,829.65087
0.66,1.026758,0.808359,22.85489,829.674459
0.67,1.02676,0.808383,22.85817,829.700328
0.68,1.02676,0.808411,22.861338,829.728345
0.69,1.026759,0.808441,22.864393,829.758371
0.7,1.026757,0.808473,22.867335,829.790266
0.71,1.026754,0.808508,22.870162,829.823886
0.72,1.02675,0.808546,22.872878,829.859083
0.73,1.026746,0.808585,22.875482,829.89571
0.74,1.02674,0.808626,22.877978,829.933616
0.75,1.026734,0.808669,22.880369,829.972651
0.76,1.026727,0.808714,22.882658,830.012664
0.77,1.026719,0.80876,22.884852,830.053505
0.78,1.026711,0.808807,22.886953,830.095024
0.79,1.026702,0.808855,22.888969,830.137075
0.8,1.026692,0.808904,22.890906,830.179512
0.81,1.026682,0.808953,22.89277,830.222193
0.82,1.026671,0.809003,22.894569,830.264976
0.83,1.02666,0.809054,22.896309,830.307728
0.84,1.026648,0.809105,22.897999,830.350316
0.85,1.026636,0.809155,22.899648,830.392613
0.86,1.026624,0.809206,22.901262,830.434497
0.87,1.026611,0.809256,22.902851,830.475851
0.88,1.026599,0.809306,22.904424,830.516564
0.89,1.026585,0.809355,22.905989,830.556531
0.9,1.026572,0.809404,22.907554,830.595654
0.91,1.026559,0.809452,22.909129,830.63384
0.92,1.026545,0.809499,22.910721,830.671005
0.93,1.026531,0.809545,22.91234,830.70707
0.94,1.026517,0.80959,22.913993,830.741965
0.95,1.026504,0.809633,22.915689,830.775625
0.96,1.02649,0.809676,22.917434,830.807994
0.97,1.026476,0.809717,22.919237,830.839023
0.98,1.026463,0.809757,22.921104,830.868672
0.99,1.026449,0.809795,22.923041,830.896905
1,1.026436,0.809831,22.925055,830.923697
1.01,1.026422,0.809867,22.927151,830.949027
1.02,1.026409,0.8099,22.929334,830.972885
1.03,1.026396,0.809932,22.931608,830.995264
1.04,1.026384,0.809963,22.933978,831.016166
1.05,1.026371,0.809992,22.936445,831.0356
1.06,1.026359,0.810019,22.939014,831.05358
1.07,1.026347,0.810045,22.941685,831.070128
1.08,1.026335,0.810069,22.944461,831.08527
1.09,1.026323,0.810091,22.947341,831.099039
1.1,1.026312,0.810113,22.950325,831.111473
1.11,1.026301,0.810132,22.953413,831.122613
1.12,1.02629,0.81015,22.956603,831.132508
1.13,1.02628,0.810167,22.959892,831.141209
1.14,1.02627,0.810183,22.963279,831.148771
1.15,1.02626,0.810197,22.966759,831.155252
1.16,1.02625,0.81021,22.970328,831.160715
1.17,1.026241,0.810222,22.973982,831.165224
1.18,1.026232,0.810232,22.977715,831.168846
1.19,1.026223,0.810242,22.98152,831.171648
1.2,1.026215,0.810251,22.985392,831.173702
1.21,1.026206,0.810259,22.989324,831.175078
1.22,1.026198,0.810266,22.993307,831.175847
1.23,1.026191,0.810273,22.997333,831.176081
1.24,1.026183,0.810278,23.001395,831.175852
1.25,1.026176,0.810284,23.005483,831.175231
1.26,1.026169,0.810289,23.009589,831.174288
1.27,1.026162,0.810293,23.013702,831.173092
1.28,1.026155,0.810297,23.017813,831.17171
1.29,1.026149,0.810301,23.021912,831.170208
1.3,1.026143,0.810304,23.025988,831.168648
1.31,1.026136,0.810307,23.030033,831.167091
1.32,1.026131,0.810311,23.034034,831.165595
1.33,1.026125,0.810314,23.037983,831.164215
1.34,1.026119,0.810317,23.041868,831.163002
1.35,1.026114,0.810321,23.04568,831.162004
1.36,1.026109,0.810324,23.049409,831.161265
1.37,1.026104,0.810328,23.053044,831.160825
1.38,1.026099,0.810332,23.056576,831.160721
1.39,1.026094,0.810336,23.059996,831.160986
1.4,1.026089,0.810341,23.063293,831.161647
1.41,1.026084,0.810345,23.066461,831.162729
1.42,1.02608,0.810351,23.069489,831.16425
1.43,1.026075,0.810356,23.072371,831.166226
1.44,1.026071,0.810362,23.075098,831.168668
1.45,1.026067,0.810368,23.077664,831.171582
1.46,1.026063,0.810374,23.080061,831.17497
1.47,1.026059,0.810381,23.082285,831.17883
1.48,1.026055,0.810389,23.08433,831.183156
1.49,1.026052,0.810396,23.08619,831.187938
1.5,1.026048,0.810404,23.087862,831.193161
1.51,1.026045,0.810412,23.089342,831.198807
1.52,1.026042,0.810421,23.090627,831.204854
1.53,1.026039,0.810429,23.091715,831.211277
1.54,1.026036,0.810438,23.092604,831.218048
1.55,1.026033,0.810447,23.093293,831.225134
1.56,1.026031,0.810457,23.093783,831.232501
1.57,1.026028,0.810466,23.094073,831.240112
1.58,1.026026,0.810475,23.094165,831.247926
1.59,1.026024,0.810485,23.09406,831.255901
1.6,1.026022,0.810494,23.093761,831.263993
1.61,1.026021,0.810503,23.093271,831.272156
1.62,1.026019,0.810512,23.092594,831.280343
1.63,1.026018,0.810521,23.091735,831.288505
1.64,1.026017,0.810529,23.090697,831.296591
1.65,1.026017,0.810538,23.089487,831.304552
1.66,1.026016,0.810545,23.088111,831.312336
1.67,1.026016,0.810553,23.086575,831.319891
1.68,1.026017,0.81056,23.084888,831.327168
1.69,1.026017,0.810566,23.083056,831.334113
1.7,1.026018,0.810571,23.081087,831.340678
1.71,1.026019,0.810576,23.078992,831.346812
1.72,1.026021,0.810581,23.076777,831.352466
1.73,1.026023,0.810584,23.074454,831.357592
1.74,1.026025,0.810587,23.072031,831.362145
1.75,1.026028,0.810588,23.06952,831.36608
1.76,1.026031,0.810589,23.066929,831.369355
1.77,1.026034,0.810589,23.06427,831.371927
1.78,1.026038,0.810587,23.061554,831.373761
1.79,1.026042,0.810585,23.058791,831.374818
1.8,1.026047,0.810582,23.055993,831.375066
1.81,1.026052,0.810577,23.053171,831.374474
1.82,1.026057,0.810571,23.050336,831.373015
1.83,1.026063,0.810564,23.0475,831.370663
1.84,1.026069,0.810556,23.044674,831.367397
1.85,1.026076,0.810547,23.041869,831.363199
1.86,1.026083,0.810536,23.039096,831.358052
1.87,1.02609,0.810524,23.036366,831.351946
1.88,1.026098,0.810511,23.033691,831.344873
1.89,1.026107,0.810497,23.03108,831.336826
1.9,1.026115,0.810481,23.028546,831.327805
1.91,1.026124,0.810464,23.026097,831.317813
1.92,1.026134,0.810446,23.023744,831.306855
1.93,1.026144,0.810426,23.021497,831.29494
1.94,1.026154,0.810405,23.019364,831.282082
1.95,1.026164,0.810384,23.017356,831.268297
1.96,1.026175,0.810361,23.015481,831.253606
1.97,1.026187,0.810337,23.013747,831.238031
1.98,1.026198,0.810311,23.012162,831.2216
1.99,1.02621,0.810285,23.010733,831.204344
2,1.026222,0.810258,23.009468,831.186295
2.01,1.026235,0.81023,23.008372,831.167492
2.02,1.026248,0.8102,23.007452,831.147972
2.03,1.026261,0.81017,23.006714,831.12778
2.04,1.026274,0.81014,23.006162,831.106962
2.05,1.026288,0.810108,23.0058,831.085564
2.06,1.026301,0.810076,23.005634,831.063639
2.07,1.026315,0.810043,23.005665,831.04124
2.08,1.026329,0.81001,23.005896,831.018423
2.09,1.026343,0.809976,23.006331,830.995244
2.1,1.026357,0.809942,23.00697,830.971765
2.11,1.026371,0.809908,23.007815,830.948047
2.12,1.026386,0.809874,23.008865,830.924153
2.13,1.0264,0.809839,23.010122,830.900147
2.14,1.026414,0.809804,23.011584,830.876095
2.15,1.026429,0.80977,23.013249,830.852064
2.16,1.026443,0.809735,23.015118,830.828122
2.17,1.026457,0.809701,23.017186,830.804337
2.18,1.026471,0.809667,23.019451,830.780778
2.19,1.026485,0.809634,23.02191,830.757514
2.2,1.026498,0.8096,23.024558,830.734614
2.21,1.026512,0.809568,23.027392,830.712146
2.22,1.026525,0.809536,23.030405,830.690179
2.23,1.026538,0.809505,23.033594,830.668781
2.24,1.026551,0.809475,23.036951,830.648019
2.25,1.026564,0.809446,23.040471,830.627958
2.26,1.026576,0.809417,23.044147,830.608664
2.27,1.026587,0.80939,23.04797,830.5902
2.28,1.026599,0.809364,23.051935,830.572628
2.29,1.02661,0.80934,23.056033,830.556007
2.3,1.02662,0.809316,23.060255,830.540395
2.31,1.026631,0.809294,23.064592,830.525847
2.32,1.02664,0.809273,23.069037,830.512418
2.33,1.026649,0.809254,23.073579,830.500158
2.34,1.026658,0.809237,23.078209,830.489114
2.35,1.026666,0.809221,23.082918,830.479332
2.36,1.026674,0.809207,23.087695,830.470853
2.37,1.026681,0.809195,23.09253,830.463717
2.38,1.026687,0.809184,23.097413,830.457958
2.39,1.026693,0.809175,23.102334,830.45361
2.4,1.026698,0.809169,23.107282,830.450699
2.41,1.026703,0.809164,23.112247,830.44925
2.42,1.026707,0.809161,23.117218,830.449285
2.43,1.02671,0.80916,23.122184,830.450821
2.44,1.026713,0.809161,23.127135,830.453869
2.45,1.026715,0.809164,23.132061,830.458439
2.46,1.026716,0.809169,23.13695,830.464537
2.47,1.026717,0.809176,23.141793,830.472161
2.48,1.026717,0.809185,23.14658,830.481309
2.49,1.026716,0.809196,23.151301,830.491974
2.5,1.026715,0.809209,23.155944,830.504142
2.51,1.026713,0.809224,23.160502,830.517798
2.52,1.02671,0.809241,23.164965,830.532921
2.53,1.026707,0.80926,23.169323,830.549488
2.54,1.026703,0.80928,23.173567,830.567468
2.55,1.026698,0.809303,23.17769,830.586831
2.56,1.026693,0.809328,23.181683,830.607538
2.57,1.026687,0.809354,23.185537,830.62955
2.58,1.026681,0.809382,23.189246,830.652823
2.59,1.026673,0.809411,23.192802,830.677308
2.6,1.026666,0.809442,23.196199,830.702953
2.61,1.026657,0.809475,23.199431,830.729705
2.62,1.026648,0.809509,23.202491,830.757506
2.63,1.026639,0.809545,23.205374,830.786292
2.64,1.026629,0.809582,23.208075,830.816002
2.65,1.026619,0.80962,23.21059,830.846567
2.66,1.026608,0.809659,23.212914,830.877919
2.67,1.026597,0.809699,23.215045,830.909986
2.68,1.026585,0.80974,23.216979,830.942692
2.69,1.026573,0.809782,23.218714,830.975964
2.7,1.026561,0.809825,23.220247,831.009723
2.71,1.026548,0.809868,23.221578,831.043889
2.72,1.026535,0.809912,23.222705,831.078383
2.73,1.026521,0.809956,23.223628,831.113124
2.74,1.026508,0.810001,23.224347,831.148028
2.75,1.026494,0.810046,23.224862,831.183014
2.76,1.02648,0.810091,23.225174,831.217999
2.77,1.026466,0.810136,23.225286,831.252899
2.78,1.026452,0.810181,23.225199,831.287632
2.79,1.026437,0.810226,23.224915,831.322116
2.8,1.026423,0.810271,23.224438,831.356268
2.81,1.026409,0.810315,23.22377,831.390009
2.82,1.026394,0.810359,23.222916,831.423259
2.83,1.02638,0.810402,23.221881,831.455941
2.84,1.026366,0.810444,23.220667,831.487978
2.85,1.026352,0.810486,23.219282,831.519295
2.86,1.026338,0.810526,23.21773,831.549822
2.87,1.026324,0.810566,23.216016,831.579488
2.88,1.026311,0.810605,23.214148,831.608225
2.89,1.026297,0.810642,23.212131,831.635971
2.9,1.026284,0.810678,23.209972,831.662663
2.91,1.026272,0.810713,23.207678,831.688243
2.92,1.026259,0.810747,23.205256,831.712656
2.93,1.026247,0.810779,23.202714,831.735852
2.94,1.026235,0.810809,23.200059,831.757782
2.95,1.026224,0.810838,23.1973,831.778402
2.96,1.026213,0.810866,23.194443,831.797672
2.97,1.026203,0.810891,23.191497,831.815557
2.98,1.026193,0.810915,23.188471,831.832024
2.99,1.026183,0.810937,23.185371,831.847046
3,1.026174,0.810957,23.182207,831.8606
3.01,1.026166,0.810976,23.178987,831.872665
3.02,1.026158,0.810992,23.175719,831.883228
3.03,1.026151,0.811007,23.172411,831.892278
3.04,1.026144,0.811019,23.169071,831.899809
3.05,1.026138,0.81103,23.165708,831.905819
3.06,1.026132,0.811039,23.162329,831.910312
3.07,1.026127,0.811045,23.158942,831.913293
3.08,1.026123,0.81105,23.155554,831.914776
3.09,1.026119,0.811053,23.152174,831.914774
3.1,1.026116,0.811054,23.148808,831.913309
3.11,1.026113,0.811053,23.145464,831.910403
3.12,1.026111,0.811051,23.142148,831.906085
3.13,1.026109,0.811046,23.138867,831.900386
3.14,1.026109,0.81104,23.135628,831.89334
3.15,1.026108,0.811032,23.132435,831.884988
3.16,1.026109,0.811022,23.129296,831.875372
3.17,1.02611,0.811011,23.126215,831.864536
3.18,1.026111,0.810998,23.123198,831.85253
3.19,1.026113,0.810983,23.120249,831.839404
3.2,1.026116,0.810967,23.117373,831.825213
3.21,1.026119,0.81095,23.114574,831.810014
3.22,1.026122,0.810931,23.111856,831.793866
3.23,1.026127,0.810911,23.109221,831.776829
3.24,1.026131,0.81089,23.106674,831.758967
3.25,1.026136,0.810868,23.104217,831.740344
3.26,1.026142,0.810845,23.101852,831.721026
3.27,1.026148,0.810821,23.099581,831.701081
3.28,1.026154,0.810796,23.097406,831.680576
3.29,1.026161,0.81077,23.095327,831.65958
3.3,1.026168,0.810743,23.093347,831.638164
3.31,1.026175,0.810716,23.091465,831.616396
3.32,1.026183,0.810689,23.089683,831.594346
3.33,1.026191,0.81066,23.087998,831.572084
3.34,1.026199,0.810632,23.086412,831.549679
3.35,1.026208,0.810603,23.084924,831.5272
3.36,1.026217,0.810574,23.083532,831.504714
3.37,1.026226,0.810546,23.082236,831.482287
3.38,1.026235,0.810517,23.081033,831.459986
3.39,1.026244,0.810488,23.079923,831.437873
3.4,1.026253,0.810459,23.078902,831.416013
3.41,1.026263,0.81043,23.077969,831.394463
3.42,1.026272,0.810402,23.077121,831.373284
3.43,1.026282,0.810374,23.076356,831.352532
3.44,1.026292,0.810347,23.07567,831.33226
3.45,1.026301,0.81032,23.075061,831.31252
3.46,1.026311,0.810294,23.074526,831.293361
3.47,1.02632,0.810268,23.074061,831.274829
3.48,1.02633,0.810244,23.073663,831.256968
3.49,1.026339,0.810219,23.073329,831.239818
3.5,1.026349,0.810196,23.073055,831.223417
3.51,1.026358,0.810174,23.072837,831.207798
3.52,1.026367,0.810152,23.072672,831.192994
3.53,1.026376,0.810132,23.072556,831.179033
3.54,1.026384,0.810112,23.072486,831.165938
3.55,1.026393,0.810093,23.072458,831.153733
3.56,1.026401,0.810076,23.072468,831.142435
3.57,1.026409,0.81006,23.072513,831.13206
3.58,1.026417,0.810044,23.072589,831.122619
3.59,1.026424,0.81003,23.072693,831.114122
3.6,1.026431,0.810017,23.072822,831.106573
3.61,1.026438,0.810005,23.072973,831.099975
3.62,1.026445,0.809994,23.073141,831.094328
3.63,1.026451,0.809985,23.073325,831.089627
3.64,1.026457,0.809976,23.073521,831.085867
3.65,1.026463,0.809969,23.073727,831.083037
3.66,1.026468,0.809963,23.07394,831.081126
3.67,1.026473,0.809958,23.074157,831.080118
3.68,1.026478,0.809954,23.074377,831.079997
3.69,1.026483,0.809951,23.074598,831.080743
3.7,1.026487,0.80995,23.074816,831.082333
3.71,1.02649,0.809949,23.075031,831.084744
3.72,1.026494,0.80995,23.075241,831.087949
3.73,1.026497,0.809951,23.075445,831.091921
3.74,1.0265,0.809953,23.075641,831.096629
3.75,1.026502,0.809957,23.075829,831.102044
3.76,1.026504,0.809961,23.076007,831.108131
3.77,1.026506,0.809966,23.076174,831.114857
3.78,1.026508,0.809972,23.076331,831.122188
3.79,1.026509,0.809979,23.076477,831.130087
3.8,1.02651,0.809986,23.076611,831.138519
3.81,1.02651,0.809994,23.076735,831.147444
3.82,1.026511,0.810003,23.076847,831.156827
3.83,1.026511,0.810013,23.076948,831.166629
3.84,1.026511,0.810023,23.077038,831.176813
3.85,1.02651,0.810034,23.077119,831.187339
3.86,1.026509,0.810045,23.07719,831.198171
3.87,1.026508,0.810056,23.077253,831.209271
3.88,1.026507,0.810068,23.077309,831.220601
3.89,1.026506,0.810081,23.077357,831.232126
3.9,1.026504,0.810093,23.077401,831.243809
3.91,1.026502,0.810106,23.07744,831.255617
3.92,1.0265,0.810119,23.077475,831.267514
3.93,1.026498,0.810133,23.077509,831.279468
3.94,1.026496,0.810146,23.077543,831.291447
3.95,1.026493,0.81016,23.077577,831.303421
3.96,1.02649,0.810174,23.077614,831.31536
3.97,1.026487,0.810188,23.077654,831.327238
3.98,1.026484,0.810202,23.077699,831.339027
3.99,1.026481,0.810216,23.077751,831.350704
4,1.026478,0.810229,23.07781,831.362245
4.01,1.026475,0.810243,23.077879,831.373628
4.02,1.026471,0.810257,23.077958,831.384836
4.03,1.026467,0.81027,23.078048,831.395849
4.04,1.026464,0.810284,23.078152,831.406651
4.05,1.02646,0.810297,23.078269,831.417228
4.06,1.026456,0.81031,23.078401,831.427568
4.07,1.026453,0.810323,23.07855,831.43766
4.08,1.026449,0.810335,23.078715,831.447494
4.09,1.026445,0.810348,23.078897,831.457064
4.1,1.026441,0.81036,23.079098,831.466364
4.11,1.026437,0.810372,23.079318,831.47539
4.12,1.026433,0.810384,23.079556,831.48414
4.13,1.026429,0.810395,23.079814,831.492613
4.14,1.026425,0.810406,23.080092,831.50081
4.15,1.02642,0.810417,23.080389,831.508734
4.16,1.026416,0.810428,23.080706,831.516388
4.17,1.026412,0.810439,23.081042,831.523778
4.18,1.026408,0.810449,23.081397,831.53091
4.19,1.026404,0.810459,23.08177,831.537792
4.2,1.0264,0.810468,23.082161,831.544433
4.21,1.026396,0.810478,23.082568,831.550841
4.22,1.026392,0.810487,23.082992,831.557029
4.23,1.026388,0.810496,23.08343,831.563007
4.24,1.026384,0.810505,23.083882,831.568789
4.25,1.02638,0.810514,23.084347,831.574386
4.26,1.026376,0.810522,23.084822,831.579813
4.27,1.026371,0.810531,23.085306,831.585083
4.28,1.026367,0.810539,23.085798,831.590212
4.29,1.026363,0.810547,23.086296,831.595212
4.3,1.026359,0.810555,23.086797,831.6001
4.31,1.026355,0.810563,23.0873,831.60489
4.32,1.026352,0.81057,23.087803,831.609597
4.33,1.026348,0.810578,23.088303,831.614235
4.34,1.026344,0.810585,23.088798,831.618818
4.35,1.02634,0.810593,23.089287,831.623362
4.36,1.026336,0.8106,23.089765,831.627879
4.37,1.026332,0.810608,23.090232,831.632383
4.38,1.026328,0.810615,23.090684,831.636886
4.39,1.026324,0.810623,23.09112,831.641401
4.4,1.02632,0.81063,23.091535,831.645938
4.41,1.026317,0.810638,23.091929,831.650507
4.42,1.026313,0.810645,23.092299,831.65512
4.43,1.026309,0.810653,23.092641,831.659784
4.44,1.026305,0.81066,23.092954,831.664506
4.45,1.026301,0.810668,23.093236,831.669295
4.46,1.026298,0.810676,23.093482,831.674154
4.47,1.026294,0.810684,23.093693,831.67909
